(0.000000) vcan0 100#0000000000000001
(0.000000) vcan0 101#000000002823000B
(0.000000) vcan0 200#000000005E01005D
(0.000000) vcan0 201#8813E80300020071
(0.000000) vcan0 300#FF0000F00000000C
(0.000000) vcan0 400#4C1D90010C2B00E3
(0.000000) vcan0 500#D2008C00002A0071
(0.000000) vcan0 600#0000000000000006
(0.050000) vcan0 100#0000000000000100
(0.100000) vcan0 100#0000000000000203
(0.100000) vcan0 101#000000002823010A
(0.100000) vcan0 200#000000005E01015C
(0.100000) vcan0 201#8813E80300020170
(0.150000) vcan0 100#0000000000000302
(0.200000) vcan0 100#0000000000000405
(0.200000) vcan0 101#0000000028230209
(0.200000) vcan0 200#000000005E01025F
(0.200000) vcan0 201#8813E80300020273
(0.200000) vcan0 300#FF0000F00000010D
(0.250000) vcan0 100#0000000000000504
(0.250000) vcan0 400#4E1D90010C2B01E0
(0.300000) vcan0 100#0000000000000607
(0.300000) vcan0 101#0000000028230308
(0.300000) vcan0 200#000000005E01035E
(0.300000) vcan0 201#8813E80300020372
(0.350000) vcan0 100#0000000000000706
(0.400000) vcan0 100#0000000000000809
(0.400000) vcan0 101#000000002823040F
(0.400000) vcan0 200#000000005E010459
(0.400000) vcan0 201#8813E80300020475
(0.400000) vcan0 300#FF0000F00000020E
(0.450000) vcan0 100#0000000000000908
(0.500000) vcan0 100#0000000000000A0B
(0.500000) vcan0 101#000000002823050E
(0.500000) vcan0 200#000000005E010558
(0.500000) vcan0 201#8813E80300020574
(0.500000) vcan0 400#501D90010C2B02FD
(0.500000) vcan0 500#D2008C00002A0170
(0.550000) vcan0 100#0000000000000B0A
(0.600000) vcan0 100#0000000000000C0D
(0.600000) vcan0 101#000000002823060D
(0.600000) vcan0 200#000000005E01065B
(0.600000) vcan0 201#8813E80300020677
(0.600000) vcan0 300#FF0000F00000030F
(0.650000) vcan0 100#0000000000000D0C
(0.700000) vcan0 100#0000000000000E0F
(0.700000) vcan0 101#000000002823070C
(0.700000) vcan0 200#000000005E01075A
(0.700000) vcan0 201#8813E80300020776
(0.750000) vcan0 100#0000000000000F0E
(0.750000) vcan0 400#531D90010C2B03FF
(0.800000) vcan0 100#0000000000001011
(0.800000) vcan0 101#0000000028230803
(0.800000) vcan0 200#000000005E010855
(0.800000) vcan0 201#8813E80300020879
(0.800000) vcan0 300#FF0000F000000408
(0.850000) vcan0 100#0000000000001110
(0.900000) vcan0 100#0000000000001213
(0.900000) vcan0 101#0000000028230902
(0.900000) vcan0 200#000000005E010954
(0.900000) vcan0 201#8813E80300020978
(0.950000) vcan0 100#0000000000001312
(1.000000) vcan0 100#0000000000001415
(1.000000) vcan0 101#0000000028230A01
(1.000000) vcan0 200#000000005E010A57
(1.000000) vcan0 201#8813E80300020A7B
(1.000000) vcan0 300#FF0000F000000509
(1.000000) vcan0 400#551D90010C2B04FE
(1.000000) vcan0 500#D2008C00002A0273
(1.000000) vcan0 600#0A0000000000010D
(1.050000) vcan0 100#0000000000001514
(1.100000) vcan0 100#0000000000001617
(1.100000) vcan0 101#0000000028230B00
(1.100000) vcan0 200#000000005E010B56
(1.100000) vcan0 201#8813E80300020B7A
(1.150000) vcan0 100#0000000000001716
(1.200000) vcan0 100#0000000000001819
(1.200000) vcan0 101#0000000028230C07
(1.200000) vcan0 200#000000005E010C51
(1.200000) vcan0 201#8813E80300020C7D
(1.200000) vcan0 300#FF0000F00000060A
(1.250000) vcan0 100#0000000000001918
(1.250000) vcan0 400#571D90010C2B05FD
(1.300000) vcan0 100#0000000000001A1B
(1.300000) vcan0 101#0000000028230D06
(1.300000) vcan0 200#000000005E010D50
(1.300000) vcan0 201#8813E80300020D7C
(1.350000) vcan0 100#0000000000001B1A
(1.400000) vcan0 100#0000000000001C1D
(1.400000) vcan0 101#0000000028230E05
(1.400000) vcan0 200#000000005E010E53
(1.400000) vcan0 201#8813E80300020E7F
(1.400000) vcan0 300#FF0000F00000070B
(1.450000) vcan0 100#0000000000001D1C
(1.500000) vcan0 100#0000000000001E1F
(1.500000) vcan0 101#0000000028230F04
(1.500000) vcan0 200#000000005E010F52
(1.500000) vcan0 201#8813E80300020F7E
(1.500000) vcan0 400#591D90010C2B06F0
(1.500000) vcan0 500#D2008C00002A0372
(1.550000) vcan0 100#0000000000001F1E
(1.600000) vcan0 100#0000000000002021
(1.600000) vcan0 101#000000002823101B
(1.600000) vcan0 200#000000005E01104D
(1.600000) vcan0 201#8813E80300021061
(1.600000) vcan0 300#FF0000F000000804
(1.650000) vcan0 100#0000000000002120
(1.700000) vcan0 100#0000000000002223
(1.700000) vcan0 101#000000002823111A
(1.700000) vcan0 200#000000005E01114C
(1.700000) vcan0 201#8813E80300021160
(1.750000) vcan0 100#0000000000002322
(1.750000) vcan0 400#5B1D90010C2B07F3
(1.800000) vcan0 100#0000000000002425
(1.800000) vcan0 101#0000000028231219
(1.800000) vcan0 200#000000005E01124F
(1.800000) vcan0 201#8813E80300021263
(1.800000) vcan0 300#FF0000F000000905
(1.850000) vcan0 100#0000000000002524
(1.900000) vcan0 100#0000000000002627
(1.900000) vcan0 101#0000000028231318
(1.900000) vcan0 200#000000005E01134E
(1.900000) vcan0 201#8813E80300021362
(1.950000) vcan0 100#0000000000002726
(2.000000) vcan0 100#0000000000002829
(2.000000) vcan0 101#000000002823141F
(2.000000) vcan0 200#000000005E011449
(2.000000) vcan0 201#8813E80300021465
(2.000000) vcan0 300#FF0000F000000A06
(2.000000) vcan0 400#5D1D90010C2B08FA
(2.000000) vcan0 500#D2008C00002A0475
(2.000000) vcan0 600#1400000000000210
(2.050000) vcan0 100#0000000000002928
(2.100000) vcan0 100#0000000000002A2B
(2.100000) vcan0 101#000000002823151E
(2.100000) vcan0 200#000000005E011548
(2.100000) vcan0 201#8813E80300021564
(2.150000) vcan0 100#0000000000002B2A
(2.200000) vcan0 100#0000000000002C2D
(2.200000) vcan0 101#000000002823161D
(2.200000) vcan0 200#000000005E01164B
(2.200000) vcan0 201#8813E80300021667
(2.200000) vcan0 300#FF0000F000000B07
(2.250000) vcan0 100#0000000000002D2C
(2.250000) vcan0 400#5F1D90010C2B09F9
(2.300000) vcan0 100#0000000000002E2F
(2.300000) vcan0 101#000000002823171C
(2.300000) vcan0 200#000000005E01174A
(2.300000) vcan0 201#8813E80300021766
(2.350000) vcan0 100#0000000000002F2E
(2.400000) vcan0 100#0000000000003031
(2.400000) vcan0 101#0000000028231813
(2.400000) vcan0 200#000000005E011845
(2.400000) vcan0 201#8813E80300021869
(2.400000) vcan0 300#FF0000F000000C00
(2.450000) vcan0 100#0000000000003130
(2.500000) vcan0 100#0000000000003233
(2.500000) vcan0 101#0000000028231912
(2.500000) vcan0 200#000000005E011944
(2.500000) vcan0 201#8813E80300021968
(2.500000) vcan0 400#601D90010C2B0AC5
(2.500000) vcan0 500#D2008C00002A0574
(2.550000) vcan0 100#0000000000003332
(2.600000) vcan0 100#0000000000003435
(2.600000) vcan0 101#0000000028231A11
(2.600000) vcan0 200#000000005E011A47
(2.600000) vcan0 201#8813E80300021A6B
(2.600000) vcan0 300#FF0000F000000D01
(2.650000) vcan0 100#0000000000003534
(2.700000) vcan0 100#0000000000003637
(2.700000) vcan0 101#0000000028231B10
(2.700000) vcan0 200#000000005E011B46
(2.700000) vcan0 201#8813E80300021B6A
(2.750000) vcan0 100#0000000000003736
(2.750000) vcan0 400#621D90010C2B0BC6
(2.800000) vcan0 100#0000000000003839
(2.800000) vcan0 101#0000000028231C17
(2.800000) vcan0 200#000000005E011C41
(2.800000) vcan0 201#8813E80300021C6D
(2.800000) vcan0 300#FF0000F000000E02
(2.850000) vcan0 100#0000000000003938
(2.900000) vcan0 100#0000000000003A3B
(2.900000) vcan0 101#0000000028231D16
(2.900000) vcan0 200#000000005E011D40
(2.900000) vcan0 201#8813E80300021D6C
(2.950000) vcan0 100#0000000000003B3A
(3.000000) vcan0 100#0000000000003C3D
(3.000000) vcan0 101#0000000028231E15
(3.000000) vcan0 200#000000005E011E43
(3.000000) vcan0 201#8813E80300021E6F
(3.000000) vcan0 300#FF0000F000000F03
(3.000000) vcan0 400#631D90010C2B0CC0
(3.000000) vcan0 500#D2008C00002A0677
(3.000000) vcan0 600#1E0000000000031B
(3.050000) vcan0 100#0000000000003D3C
(3.100000) vcan0 100#0000000000003E3F
(3.100000) vcan0 101#0000000028231F14
(3.100000) vcan0 200#000000005E011F42
(3.100000) vcan0 201#8813E80300021F6E
(3.150000) vcan0 100#0000000000003F3E
(3.200000) vcan0 100#0000000000004041
(3.200000) vcan0 101#000000002823202B
(3.200000) vcan0 200#000000005E01207D
(3.200000) vcan0 201#8813E80300022051
(3.200000) vcan0 300#FF0000F00000101C
(3.250000) vcan0 100#0000000000004140
(3.250000) vcan0 400#651D90010C2B0DC7
(3.300000) vcan0 100#0000000000004243
(3.300000) vcan0 101#000000002823212A
(3.300000) vcan0 200#000000005E01217C
(3.300000) vcan0 201#8813E80300022150
(3.350000) vcan0 100#0000000000004342
(3.400000) vcan0 100#0000000000004445
(3.400000) vcan0 101#0000000028232229
(3.400000) vcan0 200#000000005E01227F
(3.400000) vcan0 201#8813E80300022253
(3.400000) vcan0 300#FF0000F00000111D
(3.450000) vcan0 100#0000000000004544
(3.500000) vcan0 100#0000000000004647
(3.500000) vcan0 101#0000000028232328
(3.500000) vcan0 200#000000005E01237E
(3.500000) vcan0 201#8813E80300022352
(3.500000) vcan0 400#661D90010C2B0EC7
(3.500000) vcan0 500#D1008C00002A0775
(3.550000) vcan0 100#0000000000004746
(3.600000) vcan0 100#0000000000004849
(3.600000) vcan0 101#000000002823242F
(3.600000) vcan0 200#000000005E012479
(3.600000) vcan0 201#8813E80300022455
(3.600000) vcan0 300#FF0000F00000121E
(3.650000) vcan0 100#0000000000004948
(3.700000) vcan0 100#0000000000004A4B
(3.700000) vcan0 101#000000002823252E
(3.700000) vcan0 200#000000005E012578
(3.700000) vcan0 201#8813E80300022554
(3.750000) vcan0 100#0000000000004B4A
(3.750000) vcan0 400#671D90010C2B0FC7
(3.800000) vcan0 100#0000000000004C4D
(3.800000) vcan0 101#000000002823262D
(3.800000) vcan0 200#000000005E01267B
(3.800000) vcan0 201#8813E80300022657
(3.800000) vcan0 300#FF0000F00000131F
(3.850000) vcan0 100#0000000000004D4C
(3.900000) vcan0 100#0000000000004E4F
(3.900000) vcan0 101#000000002823272C
(3.900000) vcan0 200#000000005E01277A
(3.900000) vcan0 201#8813E80300022756
(3.950000) vcan0 100#0000000000004F4E
(4.000000) vcan0 100#0000000000005051
(4.000000) vcan0 101#0000000028232823
(4.000000) vcan0 200#000000005E012875
(4.000000) vcan0 201#8813E80300022859
(4.000000) vcan0 300#FF0000F000001418
(4.000000) vcan0 400#681D90010C2B10D7
(4.000000) vcan0 500#D1008C00002A087A
(4.000000) vcan0 600#280000000000042A
(4.050000) vcan0 100#0000000000005150
(4.100000) vcan0 100#0000000000005253
(4.100000) vcan0 101#0000000028232922
(4.100000) vcan0 200#000000005E012974
(4.100000) vcan0 201#8813E80300022958
(4.150000) vcan0 100#0000000000005352
(4.200000) vcan0 100#0000000000005455
(4.200000) vcan0 101#0000000028232A21
(4.200000) vcan0 200#000000005E012A77
(4.200000) vcan0 201#8813E80300022A5B
(4.200000) vcan0 300#FF0000F000001519
(4.250000) vcan0 100#0000000000005554
(4.250000) vcan0 400#691D90010C2B11D7
(4.300000) vcan0 100#0000000000005657
(4.300000) vcan0 101#0000000028232B20
(4.300000) vcan0 200#000000005E012B76
(4.300000) vcan0 201#8813E80300022B5A
(4.350000) vcan0 100#0000000000005756
(4.400000) vcan0 100#0000000000005859
(4.400000) vcan0 101#0000000028232C27
(4.400000) vcan0 200#000000005E012C71
(4.400000) vcan0 201#8813E80300022C5D
(4.400000) vcan0 300#FF0000F00000161A
(4.450000) vcan0 100#0000000000005958
(4.500000) vcan0 100#0000000000005A5B
(4.500000) vcan0 101#0000000028232D26
(4.500000) vcan0 200#000000005E012D70
(4.500000) vcan0 201#8813E80300022D5C
(4.500000) vcan0 400#691D90010C2B12D4
(4.500000) vcan0 500#D1008C00002A097B
(4.550000) vcan0 100#0000000000005B5A
(4.600000) vcan0 100#0000000000005C5D
(4.600000) vcan0 101#0000000028232E25
(4.600000) vcan0 200#000000005E012E73
(4.600000) vcan0 201#8813E80300022E5F
(4.600000) vcan0 300#FF0000F00000171B
(4.650000) vcan0 100#0000000000005D5C
(4.700000) vcan0 100#0000000000005E5F
(4.700000) vcan0 101#0000000028232F24
(4.700000) vcan0 200#000000005E012F72
(4.700000) vcan0 201#8813E80300022F5E
(4.750000) vcan0 100#0000000000005F5E
(4.750000) vcan0 400#6A1D90010C2B13D6
(4.800000) vcan0 100#0000000000006061
(4.800000) vcan0 101#000000002823303B
(4.800000) vcan0 200#000000005E01306D
(4.800000) vcan0 201#8813E80300023041
(4.800000) vcan0 300#FF0000F000001814
(4.850000) vcan0 100#0000000000006160
(4.900000) vcan0 100#0000000000006263
(4.900000) vcan0 101#000000002823313A
(4.900000) vcan0 200#000000005E01316C
(4.900000) vcan0 201#8813E80300023140
(4.950000) vcan0 100#0000000000006362
(5.000000) vcan0 100#0000000000006465
(5.000000) vcan0 101#0000000028233239
(5.000000) vcan0 200#000000005E01326F
(5.000000) vcan0 201#8813E80300023243
(5.000000) vcan0 300#FF0000F000001915
(5.000000) vcan0 400#6A1D90010C2B14D1
(5.000000) vcan0 500#D1008C00002A0A78
(5.000000) vcan0 600#3200000000000531
(5.050000) vcan0 100#0000000000006564
(5.100000) vcan0 100#0000000000006667
(5.100000) vcan0 101#0000000028233338
(5.100000) vcan0 200#000000005E01336E
(5.100000) vcan0 201#8813E80300023342
(5.150000) vcan0 100#0000000000006766
(5.200000) vcan0 100#0000000000006869
(5.200000) vcan0 101#000000002823343F
(5.200000) vcan0 200#000000005E013469
(5.200000) vcan0 201#8813E80300023445
(5.200000) vcan0 300#FF0000F000001A16
(5.250000) vcan0 100#0000000000006968
(5.250000) vcan0 400#6A1D90010C2B15D0
(5.300000) vcan0 100#0000000000006A6B
(5.300000) vcan0 101#000000002823353E
(5.300000) vcan0 200#000000005E013568
(5.300000) vcan0 201#8813E80300023544
(5.350000) vcan0 100#0000000000006B6A
(5.400000) vcan0 100#0000000000006C6D
(5.400000) vcan0 101#000000002823363D
(5.400000) vcan0 200#000000005E01366B
(5.400000) vcan0 201#8813E80300023647
(5.400000) vcan0 300#FF0000F000001B17
(5.450000) vcan0 100#0000000000006D6C
(5.500000) vcan0 100#0000000000006E6F
(5.500000) vcan0 101#000000002823373C
(5.500000) vcan0 200#000000005E01376A
(5.500000) vcan0 201#8813E80300023746
(5.500000) vcan0 400#6A1D90010C2B16D3
(5.500000) vcan0 500#D1008C00002A0B79
(5.550000) vcan0 100#0000000000006F6E
(5.600000) vcan0 100#0000000000007071
(5.600000) vcan0 101#0000000028233833
(5.600000) vcan0 200#000000005E013865
(5.600000) vcan0 201#8813E80300023849
(5.600000) vcan0 300#FF0000F000001C10
(5.650000) vcan0 100#0000000000007170
(5.700000) vcan0 100#0000000000007273
(5.700000) vcan0 101#0000000028233932
(5.700000) vcan0 200#000000005E013964
(5.700000) vcan0 201#8813E80300023948
(5.750000) vcan0 100#0000000000007372
(5.750000) vcan0 400#6A1D90010C2B17D2
(5.800000) vcan0 100#0000000000007475
(5.800000) vcan0 101#0000000028233A31
(5.800000) vcan0 200#000000005E013A67
(5.800000) vcan0 201#8813E80300023A4B
(5.800000) vcan0 300#FF0000F000001D11
(5.850000) vcan0 100#0000000000007574
(5.900000) vcan0 100#0000000000007677
(5.900000) vcan0 101#0000000028233B30
(5.900000) vcan0 200#000000005E013B66
(5.900000) vcan0 201#8813E80300023B4A
(5.950000) vcan0 100#0000000000007776
(6.000000) vcan0 100#0000000000007879
(6.000000) vcan0 101#0000000028233C37
(6.000000) vcan0 200#000000005E013C61
(6.000000) vcan0 201#8813E80300023C4D
(6.000000) vcan0 300#FF0000F000001E12
(6.000000) vcan0 400#691D90010C2B18DE
(6.000000) vcan0 500#D1008C00002A0C7E
(6.000000) vcan0 600#3C0000000000063C
(6.050000) vcan0 100#0000000000007978
(6.100000) vcan0 100#0000000000007A7B
(6.100000) vcan0 101#0000000028233D36
(6.100000) vcan0 200#000000005E013D60
(6.100000) vcan0 201#8813E80300023D4C
(6.150000) vcan0 100#0000000000007B7A
(6.200000) vcan0 100#0000000000007C7D
(6.200000) vcan0 101#0000000028233E35
(6.200000) vcan0 200#000000005E013E63
(6.200000) vcan0 201#8813E80300023E4F
(6.200000) vcan0 300#FF0000F000001F13
(6.250000) vcan0 100#0000000000007D7C
(6.250000) vcan0 400#691D90010C2B19DF
(6.300000) vcan0 100#0000000000007E7F
(6.300000) vcan0 101#0000000028233F34
(6.300000) vcan0 200#000000005E013F62
(6.300000) vcan0 201#8813E80300023F4E
(6.350000) vcan0 100#0000000000007F7E
(6.400000) vcan0 100#0000000000008081
(6.400000) vcan0 101#000000002823404B
(6.400000) vcan0 200#000000005E01401D
(6.400000) vcan0 201#8813E80300024031
(6.400000) vcan0 300#FF0000F00000202C
(6.450000) vcan0 100#0000000000008180
(6.500000) vcan0 100#0000000000008283
(6.500000) vcan0 101#000000002823414A
(6.500000) vcan0 200#000000005E01411C
(6.500000) vcan0 201#8813E80300024130
(6.500000) vcan0 400#681D90010C2B1ADD
(6.500000) vcan0 500#D1008C00002A0D7F
(6.550000) vcan0 100#0000000000008382
(6.600000) vcan0 100#0000000000008485
(6.600000) vcan0 101#0000000028234249
(6.600000) vcan0 200#000000005E01421F
(6.600000) vcan0 201#8813E80300024233
(6.600000) vcan0 300#FF0000F00000212D
(6.650000) vcan0 100#0000000000008584
(6.700000) vcan0 100#0000000000008687
(6.700000) vcan0 101#0000000028234348
(6.700000) vcan0 200#000000005E01431E
(6.700000) vcan0 201#8813E80300024332
(6.750000) vcan0 100#0000000000008786
(6.750000) vcan0 400#671D90010C2B1BD3
(6.800000) vcan0 100#0000000000008889
(6.800000) vcan0 101#000000002823444F
(6.800000) vcan0 200#000000005E014419
(6.800000) vcan0 201#8813E80300024435
(6.800000) vcan0 300#FF0000F00000222E
(6.850000) vcan0 100#0000000000008988
(6.900000) vcan0 100#0000000000008A8B
(6.900000) vcan0 101#000000002823454E
(6.900000) vcan0 200#000000005E014518
(6.900000) vcan0 201#8813E80300024534
(6.950000) vcan0 100#0000000000008B8A
(7.000000) vcan0 100#0000000000008C8D
(7.000000) vcan0 101#000000002823464D
(7.000000) vcan0 200#000000005E01461B
(7.000000) vcan0 201#8813E80300024637
(7.000000) vcan0 300#FF0000F00000232F
(7.000000) vcan0 400#661D90010C2B1CD5
(7.000000) vcan0 500#D1008C00002A0E7C
(7.000000) vcan0 600#4600000000000747
(7.050000) vcan0 100#0000000000008D8C
(7.100000) vcan0 100#0000000000008E8F
(7.100000) vcan0 101#000000002823474C
(7.100000) vcan0 200#000000005E01471A
(7.100000) vcan0 201#8813E80300024736
(7.150000) vcan0 100#0000000000008F8E
(7.200000) vcan0 100#0000000000009091
(7.200000) vcan0 101#0000000028234843
(7.200000) vcan0 200#000000005E014815
(7.200000) vcan0 201#8813E80300024839
(7.200000) vcan0 300#FF0000F000002428
(7.250000) vcan0 100#0000000000009190
(7.250000) vcan0 400#651D90010C2B1DD7
(7.300000) vcan0 100#0000000000009293
(7.300000) vcan0 101#0000000028234942
(7.300000) vcan0 200#000000005E014914
(7.300000) vcan0 201#8813E80300024938
(7.350000) vcan0 100#0000000000009392
(7.400000) vcan0 100#0000000000009495
(7.400000) vcan0 101#0000000028234A41
(7.400000) vcan0 200#000000005E014A17
(7.400000) vcan0 201#8813E80300024A3B
(7.400000) vcan0 300#FF0000F000002529
(7.450000) vcan0 100#0000000000009594
(7.500000) vcan0 100#0000000000009697
(7.500000) vcan0 101#0000000028234B40
(7.500000) vcan0 200#000000005E014B16
(7.500000) vcan0 201#8813E80300024B3A
(7.500000) vcan0 400#631D90010C2B1ED2
(7.500000) vcan0 500#D1008C00002A0F7D
(7.550000) vcan0 100#0000000000009796
(7.600000) vcan0 100#0000000000009899
(7.600000) vcan0 101#0000000028234C47
(7.600000) vcan0 200#000000005E014C11
(7.600000) vcan0 201#8813E80300024C3D
(7.600000) vcan0 300#FF0000F00000262A
(7.650000) vcan0 100#0000000000009998
(7.700000) vcan0 100#0000000000009A9B
(7.700000) vcan0 101#0000000028234D46
(7.700000) vcan0 200#000000005E014D10
(7.700000) vcan0 201#8813E80300024D3C
(7.750000) vcan0 100#0000000000009B9A
(7.750000) vcan0 400#621D90010C2B1FD2
(7.800000) vcan0 100#0000000000009C9D
(7.800000) vcan0 101#0000000028234E45
(7.800000) vcan0 200#000000005E014E13
(7.800000) vcan0 201#8813E80300024E3F
(7.800000) vcan0 300#FF0000F00000272B
(7.850000) vcan0 100#0000000000009D9C
(7.900000) vcan0 100#0000000000009E9F
(7.900000) vcan0 101#0000000028234F44
(7.900000) vcan0 200#000000005E014F12
(7.900000) vcan0 201#8813E80300024F3E
(7.950000) vcan0 100#0000000000009F9E
(8.000000) vcan0 100#000000000000A0A1
(8.000000) vcan0 101#000000002823505B
(8.000000) vcan0 200#000000005E01500D
(8.000000) vcan0 201#8813E80300025021
(8.000000) vcan0 300#FF0000F000002824
(8.000000) vcan0 400#601D90010C2B20EF
(8.000000) vcan0 500#D1008C00002A1062
(8.000000) vcan0 600#500000000000085E
(8.050000) vcan0 100#000000000000A1A0
(8.100000) vcan0 100#000000000000A2A3
(8.100000) vcan0 101#000000002823515A
(8.100000) vcan0 200#000000005E01510C
(8.100000) vcan0 201#8813E80300025120
(8.150000) vcan0 100#000000000000A3A2
(8.200000) vcan0 100#000000000000A4A5
(8.200000) vcan0 101#0000000028235259
(8.200000) vcan0 200#000000005E01520F
(8.200000) vcan0 201#8813E80300025223
(8.200000) vcan0 300#FF0000F000002925
(8.250000) vcan0 100#000000000000A5A4
(8.250000) vcan0 400#5F1D90010C2B21D1
(8.300000) vcan0 100#000000000000A6A7
(8.300000) vcan0 101#0000000028235358
(8.300000) vcan0 200#000000005E01530E
(8.300000) vcan0 201#8813E80300025322
(8.350000) vcan0 100#000000000000A7A6
(8.400000) vcan0 100#000000000000A8A9
(8.400000) vcan0 101#000000002823545F
(8.400000) vcan0 200#000000005E015409
(8.400000) vcan0 201#8813E80300025425
(8.400000) vcan0 300#FF0000F000002A26
(8.450000) vcan0 100#000000000000A9A8
(8.500000) vcan0 100#000000000000AAAB
(8.500000) vcan0 101#000000002823555E
(8.500000) vcan0 200#000000005E015508
(8.500000) vcan0 201#8813E80300025524
(8.500000) vcan0 400#5D1D90010C2B22D0
(8.500000) vcan0 500#D0008C00002A1162
(8.550000) vcan0 100#000000000000ABAA
(8.600000) vcan0 100#000000000000ACAD
(8.600000) vcan0 101#000000002823565D
(8.600000) vcan0 200#000000005E01560B
(8.600000) vcan0 201#8813E80300025627
(8.600000) vcan0 300#FF0000F000002B27
(8.650000) vcan0 100#000000000000ADAC
(8.700000) vcan0 100#000000000000AEAF
(8.700000) vcan0 101#000000002823575C
(8.700000) vcan0 200#000000005E01570A
(8.700000) vcan0 201#8813E80300025726
(8.750000) vcan0 100#000000000000AFAE
(8.750000) vcan0 400#5B1D90010C2B23D7
(8.800000) vcan0 100#000000000000B0B1
(8.800000) vcan0 101#0000000028235853
(8.800000) vcan0 200#000000005E015805
(8.800000) vcan0 201#8813E80300025829
(8.800000) vcan0 300#FF0000F000002C20
(8.850000) vcan0 100#000000000000B1B0
(8.900000) vcan0 100#000000000000B2B3
(8.900000) vcan0 101#0000000028235952
(8.900000) vcan0 200#000000005E015904
(8.900000) vcan0 201#8813E80300025928
(8.950000) vcan0 100#000000000000B3B2
(9.000000) vcan0 100#000000000000B4B5
(9.000000) vcan0 101#0000000028235A51
(9.000000) vcan0 200#000000005E015A07
(9.000000) vcan0 201#8813E80300025A2B
(9.000000) vcan0 300#FF0000F000002D21
(9.000000) vcan0 400#591D90010C2B24D2
(9.000000) vcan0 500#D0008C00002A1261
(9.000000) vcan0 600#5A00000000000955
(9.050000) vcan0 100#000000000000B5B4
(9.100000) vcan0 100#000000000000B6B7
(9.100000) vcan0 101#0000000028235B50
(9.100000) vcan0 200#000000005E015B06
(9.100000) vcan0 201#8813E80300025B2A
(9.150000) vcan0 100#000000000000B7B6
(9.200000) vcan0 100#000000000000B8B9
(9.200000) vcan0 101#0000000028235C57
(9.200000) vcan0 200#000000005E015C01
(9.200000) vcan0 201#8813E80300025C2D
(9.200000) vcan0 300#FF0000F000002E22
(9.250000) vcan0 100#000000000000B9B8
(9.250000) vcan0 400#571D90010C2B25DD
(9.300000) vcan0 100#000000000000BABB
(9.300000) vcan0 101#0000000028235D56
(9.300000) vcan0 200#000000005E015D00
(9.300000) vcan0 201#8813E80300025D2C
(9.350000) vcan0 100#000000000000BBBA
(9.400000) vcan0 100#000000000000BCBD
(9.400000) vcan0 101#0000000028235E55
(9.400000) vcan0 200#000000005E015E03
(9.400000) vcan0 201#8813E80300025E2F
(9.400000) vcan0 300#FF0000F000002F23
(9.450000) vcan0 100#000000000000BDBC
(9.500000) vcan0 100#000000000000BEBF
(9.500000) vcan0 101#0000000028235F54
(9.500000) vcan0 200#000000005E015F02
(9.500000) vcan0 201#8813E80300025F2E
(9.500000) vcan0 400#551D90010C2B26DC
(9.500000) vcan0 500#D0008C00002A1360
(9.550000) vcan0 100#000000000000BFBE
(9.600000) vcan0 100#000000000000C0C1
(9.600000) vcan0 101#000000002823606B
(9.600000) vcan0 200#000000005E01603D
(9.600000) vcan0 201#8813E80300026011
(9.600000) vcan0 300#FF0000F00000303C
(9.650000) vcan0 100#000000000000C1C0
(9.700000) vcan0 100#000000000000C2C3
(9.700000) vcan0 101#000000002823616A
(9.700000) vcan0 200#000000005E01613C
(9.700000) vcan0 201#8813E80300026110
(9.750000) vcan0 100#000000000000C3C2
(9.750000) vcan0 400#521D90010C2B27DA
(9.800000) vcan0 100#000000000000C4C5
(9.800000) vcan0 101#0000000028236269
(9.800000) vcan0 200#000000005E01623F
(9.800000) vcan0 201#8813E80300026213
(9.800000) vcan0 300#FF0000F00000313D
(9.850000) vcan0 100#000000000000C5C4
(9.900000) vcan0 100#000000000000C6C7
(9.900000) vcan0 101#0000000028236368
(9.900000) vcan0 200#000000005E01633E
(9.900000) vcan0 201#8813E80300026312
(9.950000) vcan0 100#000000000000C7C6
(10.000000) vcan0 100#000000000000C8C9
(10.000000) vcan0 101#000000002823646F
(10.000000) vcan0 200#000000005E016439
(10.000000) vcan0 201#8813E80300026415
(10.000000) vcan0 300#FF0000F00000323E
(10.000000) vcan0 400#501D90010C2B28D7
(10.000000) vcan0 500#D0008C00002A1467
(10.000000) vcan0 600#6400000000000A68
(10.050000) vcan0 100#000000000000C9C8
(10.100000) vcan0 100#000000000000CACB
(10.100000) vcan0 101#000000002823656E
(10.100000) vcan0 200#000000005E016538
(10.100000) vcan0 201#8813E80300026514
(10.150000) vcan0 100#000000000000CBCA
(10.200000) vcan0 100#000000000000CCCD
(10.200000) vcan0 101#000000002823666D
(10.200000) vcan0 200#000000005E01663B
(10.200000) vcan0 201#8813E80300026617
(10.200000) vcan0 300#000003F0000033C3
(10.250000) vcan0 100#000000000000CDCC
(10.250000) vcan0 400#4E1D90010C2B29C8
(10.300000) vcan0 100#000000000000CECF
(10.300000) vcan0 101#000000002823676C
(10.300000) vcan0 200#000000005E01673A
(10.300000) vcan0 201#8813E80300026716
(10.350000) vcan0 100#000000000000CFCE
(10.400000) vcan0 100#000000000000D0D1
(10.400000) vcan0 101#0000000028236863
(10.400000) vcan0 200#000000005E016835
(10.400000) vcan0 201#8813E80300026819
(10.400000) vcan0 300#000003F0000034C4
(10.450000) vcan0 100#000000000000D1D0
(10.500000) vcan0 100#000000000000D2D3
(10.500000) vcan0 101#0000000028236962
(10.500000) vcan0 200#000000005E016934
(10.500000) vcan0 201#8813E80300026918
(10.500000) vcan0 400#4C1D90010C2B2AC9
(10.500000) vcan0 500#D0008C00002A1566
(10.550000) vcan0 100#000000000000D3D2
(10.600000) vcan0 100#000000000000D4D5
(10.600000) vcan0 101#0000000028236A61
(10.600000) vcan0 200#000000005E016A37
(10.600000) vcan0 201#8813E80300026A1B
(10.600000) vcan0 300#000003F0000035C5
(10.650000) vcan0 100#000000000000D5D4
(10.700000) vcan0 100#000000000000D6D7
(10.700000) vcan0 101#0000000028236B60
(10.700000) vcan0 200#000000005E016B36
(10.700000) vcan0 201#8813E80300026B1A
(10.750000) vcan0 100#000000000000D7D6
(10.750000) vcan0 400#4A1D90010C2B2BCE
(10.800000) vcan0 100#000000000000D8D9
(10.800000) vcan0 101#0000000028236C67
(10.800000) vcan0 200#000000005E016C31
(10.800000) vcan0 201#8813E80300026C1D
(10.800000) vcan0 300#000003F0000036C6
(10.850000) vcan0 100#000000000000D9D8
(10.900000) vcan0 100#000000000000DADB
(10.900000) vcan0 101#0000000028236D66
(10.900000) vcan0 200#000000005E016D30
(10.900000) vcan0 201#8813E80300026D1C
(10.950000) vcan0 100#000000000000DBDA
(11.000000) vcan0 100#000000000000DCDD
(11.000000) vcan0 101#0000000028236E65
(11.000000) vcan0 200#000000005E016E33
(11.000000) vcan0 201#8813E80300026E1F
(11.000000) vcan0 300#000003F0000037C7
(11.000000) vcan0 400#471D90010C2B2CC4
(11.000000) vcan0 500#D0008C00002A1665
(11.000000) vcan0 600#6E00000000000B63
(11.050000) vcan0 100#000000000000DDDC
(11.100000) vcan0 100#000000000000DEDF
(11.100000) vcan0 101#0000000028236F64
(11.100000) vcan0 200#000000005E016F32
(11.100000) vcan0 201#8813E80300026F1E
(11.150000) vcan0 100#000000000000DFDE
(11.200000) vcan0 100#000000000000E0E1
(11.200000) vcan0 101#000000002823707B
(11.200000) vcan0 200#000000005E01702D
(11.200000) vcan0 201#8813E80300027001
(11.200000) vcan0 300#000003F0000038C8
(11.250000) vcan0 100#000000000000E1E0
(11.250000) vcan0 400#451D90010C2B2DC7
(11.300000) vcan0 100#000000000000E2E3
(11.300000) vcan0 101#000000002823717A
(11.300000) vcan0 200#000000005E01712C
(11.300000) vcan0 201#8813E80300027100
(11.350000) vcan0 100#000000000000E3E2
(11.400000) vcan0 100#000000000000E4E5
(11.400000) vcan0 101#0000000028237279
(11.400000) vcan0 200#000000005E01722F
(11.400000) vcan0 201#8813E80300027203
(11.400000) vcan0 300#000003F0000039C9
(11.450000) vcan0 100#000000000000E5E4
(11.500000) vcan0 100#000000000000E6E7
(11.500000) vcan0 101#0000000028237378
(11.500000) vcan0 200#000000005E01732E
(11.500000) vcan0 201#8813E80300027302
(11.500000) vcan0 400#431D90010C2B2EC2
(11.500000) vcan0 500#D0008C00002A1764
(11.550000) vcan0 100#000000000000E7E6
(11.600000) vcan0 100#000000000000E8E9
(11.600000) vcan0 101#000000002823747F
(11.600000) vcan0 200#000000005E017429
(11.600000) vcan0 201#8813E80300027405
(11.600000) vcan0 300#000003F000003ACA
(11.650000) vcan0 100#000000000000E9E8
(11.700000) vcan0 100#000000000000EAEB
(11.700000) vcan0 101#000000002823757E
(11.700000) vcan0 200#000000005E017528
(11.700000) vcan0 201#8813E80300027504
(11.750000) vcan0 100#000000000000EBEA
(11.750000) vcan0 400#411D90010C2B2FC1
(11.800000) vcan0 100#000000000000ECED
(11.800000) vcan0 101#000000002823767D
(11.800000) vcan0 200#000000005E01762B
(11.800000) vcan0 201#8813E80300027607
(11.800000) vcan0 300#000003F000003BCB
(11.850000) vcan0 100#000000000000EDEC
(11.900000) vcan0 100#000000000000EEEF
(11.900000) vcan0 101#000000002823777C
(11.900000) vcan0 200#000000005E01772A
(11.900000) vcan0 201#8813E80300027706
(11.950000) vcan0 100#000000000000EFEE
(12.000000) vcan0 100#000000000000F0F1
(12.000000) vcan0 101#0000000028237873
(12.000000) vcan0 200#000000005E017825
(12.000000) vcan0 201#8813E80300027809
(12.000000) vcan0 300#000003F000003CCC
(12.000000) vcan0 400#3F1D90010C2B30A0
(12.000000) vcan0 500#D0008C00002A186B
(12.000000) vcan0 600#7800000000000C72
(12.050000) vcan0 100#09008A020100F170
(12.100000) vcan0 100#15008A020100F26F
(12.100000) vcan0 101#0000000028237972
(12.100000) vcan0 200#0F00EE025F0179C6
(12.100000) vcan0 201#88130000000079E1
(12.150000) vcan0 100#21008A020100F35A
(12.200000) vcan0 100#2C008A020100F450
(12.200000) vcan0 101#0000000028237A71
(12.200000) vcan0 200#1F00EE025F017AD5
(12.200000) vcan0 201#8813000000007AE2
(12.200000) vcan0 300#000003F000003DCD
(12.250000) vcan0 100#38008A020100F545
(12.250000) vcan0 400#3D1D69020C2B3159
(12.300000) vcan0 100#44008A020100F63A
(12.300000) vcan0 101#0000000028237B70
(12.300000) vcan0 200#2F00EE0260017BDB
(12.300000) vcan0 201#8813000000007BE3
(12.350000) vcan0 100#50008A020100F72F
(12.400000) vcan0 100#5B008A020100F82B
(12.400000) vcan0 101#0000000028237C77
(12.400000) vcan0 200#3F00EE0260017CCC
(12.400000) vcan0 201#8813000000007CE4
(12.400000) vcan0 300#000003F000003ECE
(12.450000) vcan0 100#67008A020100F916
(12.500000) vcan0 100#73008A020100FA01
(12.500000) vcan0 101#0100000028237D77
(12.500000) vcan0 200#5000EE0261017DA3
(12.500000) vcan0 201#8813000000007DE5
(12.500000) vcan0 400#3B1D4B030C2B327F
(12.500000) vcan0 500#D0008C00002A196A
(12.550000) vcan0 100#7E008A020100FB0D
(12.600000) vcan0 100#8A008A020100FCFE
(12.600000) vcan0 101#0100000028237E74
(12.600000) vcan0 200#6000EE0261017E90
(12.600000) vcan0 201#8813000000007EE6
(12.600000) vcan0 300#000003F000003FCF
(12.650000) vcan0 100#96008A020100FDE3
(12.700000) vcan0 100#A1008A020100FED7
(12.700000) vcan0 101#0200000028237F76
(12.700000) vcan0 200#7000EE0262017F82
(12.700000) vcan0 201#8813000000007FE7
(12.750000) vcan0 100#AD008A020100FFDA
(12.750000) vcan0 400#391D2D040C2B331D
(12.800000) vcan0 100#B9008A0201000031
(12.800000) vcan0 101#0200000028238089
(12.800000) vcan0 200#8000EE026301808C
(12.800000) vcan0 201#8813000000008018
(12.800000) vcan0 300#000003F0000040B0
(12.850000) vcan0 100#C5008A020100014C
(12.900000) vcan0 100#D0008A020100025A
(12.900000) vcan0 101#0300000028238189
(12.900000) vcan0 200#9100EE026301819C
(12.900000) vcan0 201#8813000000008119
(12.950000) vcan0 100#DC008A0201000357
(13.000000) vcan0 100#E8008A0201000464
(13.000000) vcan0 101#030000002823828A
(13.000000) vcan0 200#A100EE02640182A8
(13.000000) vcan0 201#881300000000821A
(13.000000) vcan0 300#000003F0000041B1
(13.000000) vcan0 400#371D0F050C2B3437
(13.000000) vcan0 500#D0008C00002A1A69
(13.000000) vcan0 600#8200000000000D89
(13.050000) vcan0 100#F3008A020100057E
(13.100000) vcan0 100#FF008A0201000671
(13.100000) vcan0 101#040000002823838C
(13.100000) vcan0 200#B100EE02640183B9
(13.100000) vcan0 201#881300000000831B
(13.150000) vcan0 100#0B018A0201000785
(13.200000) vcan0 100#16018A0201000897
(13.200000) vcan0 101#050000002823848A
(13.200000) vcan0 200#C100EE02650184CF
(13.200000) vcan0 201#881300000000841C
(13.200000) vcan0 300#000003F0000042B2
(13.250000) vcan0 100#22018A02010009A2
(13.250000) vcan0 400#361DF1050C2B35C9
(13.300000) vcan0 100#2E018A0201000AAD
(13.300000) vcan0 101#050000002823858B
(13.300000) vcan0 200#D200EE02660185DE
(13.300000) vcan0 201#881300000000851D
(13.350000) vcan0 100#3A018A0201000BB8
(13.400000) vcan0 100#45018A0201000CC0
(13.400000) vcan0 101#060000002823868B
(13.400000) vcan0 200#E200EE02660186ED
(13.400000) vcan0 201#881300000000861E
(13.400000) vcan0 300#000003F0000043B3
(13.450000) vcan0 100#51018A0201000DD5
(13.500000) vcan0 100#5D018A0201000EDA
(13.500000) vcan0 101#070000002823878B
(13.500000) vcan0 200#F200EE02670187FD
(13.500000) vcan0 201#881300000000871F
(13.500000) vcan0 400#341DD3060C2B36E9
(13.500000) vcan0 500#D0008C00002A1B68
(13.550000) vcan0 100#68018A0201000FEE
(13.600000) vcan0 100#74018A02010010ED
(13.600000) vcan0 101#080000002823888B
(13.600000) vcan0 200#0201EE0267018803
(13.600000) vcan0 201#8813000000008810
(13.600000) vcan0 300#000003F0000044B4
(13.650000) vcan0 100#80018A0201001118
(13.700000) vcan0 100#8B018A0201001210
(13.700000) vcan0 101#090000002823898B
(13.700000) vcan0 200#1301EE026801891C
(13.700000) vcan0 201#8813000000008911
(13.750000) vcan0 100#97018A020100130D
(13.750000) vcan0 400#331DB6070C2B378B
(13.800000) vcan0 100#A3018A020100143E
(13.800000) vcan0 101#0A00000028238A8B
(13.800000) vcan0 200#2301EE0268018A2F
(13.800000) vcan0 201#8813000000008A12
(13.800000) vcan0 300#000003F0000045B5
(13.850000) vcan0 100#AF018A0201001533
(13.900000) vcan0 100#BA018A0201001625
(13.900000) vcan0 101#0C00000028238B8C
(13.900000) vcan0 200#3301EE0269018B3F
(13.900000) vcan0 201#8813000000008B13
(13.950000) vcan0 100#C6018A0201001758
(14.000000) vcan0 100#D2018A0201001843
(14.000000) vcan0 101#0D00000028238C8A
(14.000000) vcan0 200#4301EE026A018C4B
(14.000000) vcan0 201#8813000000008C14
(14.000000) vcan0 300#000003F0000046B6
(14.000000) vcan0 400#321D98080C2B38A4
(14.000000) vcan0 500#D0008C00002A1C6F
(14.000000) vcan0 600#8C00000000000E84
(14.050000) vcan0 100#DD018A020100194D
(14.100000) vcan0 100#E9018A0201001A7A
(14.100000) vcan0 101#0E00000028238D88
(14.100000) vcan0 200#5401EE026A018D5D
(14.100000) vcan0 201#8813000000008D15
(14.150000) vcan0 100#F5018A0201001B67
(14.200000) vcan0 100#00028A0201001C96
(14.200000) vcan0 101#1000000028238E95
(14.200000) vcan0 200#6401EE026B018E6F
(14.200000) vcan0 201#8813000000008E16
(14.200000) vcan0 300#000003F0000047B7
(14.250000) vcan0 100#0C028A0201001D9B
(14.250000) vcan0 400#311D7A090C2B3945
(14.300000) vcan0 100#18028A0201001E8C
(14.300000) vcan0 101#1100000028238F95
(14.300000) vcan0 200#7401EE026B018F7E
(14.300000) vcan0 201#8813000000008F17
(14.350000) vcan0 100#24028A0201001FB1
(14.400000) vcan0 100#2F028A0201002085
(14.400000) vcan0 101#1300000028239088
(14.400000) vcan0 200#8401EE026C019096
(14.400000) vcan0 201#8813000000009008
(14.400000) vcan0 300#000003F0000048B8
(14.450000) vcan0 100#3B028A0201002190
(14.500000) vcan0 100#47028A02010022EF
(14.500000) vcan0 101#140000002823918E
(14.500000) vcan0 200#9501EE026C019186
(14.500000) vcan0 201#8813000000009109
(14.500000) vcan0 400#301D5D0A0C2B3A63
(14.500000) vcan0 500#D0008C00002A1D6E
(14.550000) vcan0 100#52028A02010023FB
(14.600000) vcan0 100#5E028A02010024F0
(14.600000) vcan0 101#160000002823928F
(14.600000) vcan0 200#A501EE026D0192B4
(14.600000) vcan0 201#881300000000920A
(14.600000) vcan0 300#000003F0000049B9
(14.650000) vcan0 100#6A028A02010025C5
(14.700000) vcan0 100#75028A02010026D9
(14.700000) vcan0 101#1800000028239380
(14.700000) vcan0 200#B501EE026E0193A6
(14.700000) vcan0 201#881300000000930B
(14.750000) vcan0 100#81028A020100272C
(14.750000) vcan0 400#2F1D3F0B0C2B3B1E
(14.800000) vcan0 100#8D028A020100282F
(14.800000) vcan0 101#1900000028239486
(14.800000) vcan0 200#C501EE026E0194D1
(14.800000) vcan0 201#881300000000940C
(14.800000) vcan0 300#000003F000004ABA
(14.850000) vcan0 100#99028A020100293A
(14.900000) vcan0 100#A4028A0201002A04
(14.900000) vcan0 101#1B00000028239585
(14.900000) vcan0 200#D601EE026F0195C2
(14.900000) vcan0 201#881300000000950D
(14.950000) vcan0 100#B0028A0201002B11
(15.000000) vcan0 100#BC028A0201002C1A
(15.000000) vcan0 101#1D00000028239680
(15.000000) vcan0 200#E601EE026F0196F1
(15.000000) vcan0 201#881300000000960E
(15.000000) vcan0 300#000003F000004BBB
(15.000000) vcan0 400#2F1D220C0C2B3C03
(15.000000) vcan0 500#D0008C00002A1E6D
(15.000000) vcan0 600#9600000000000F9F
(15.050000) vcan0 100#C7028A0201002D60
(15.100000) vcan0 100#D3028A0201002E77
(15.100000) vcan0 101#1F00000028239783
(15.100000) vcan0 200#F601EE02700197FF
(15.100000) vcan0 201#881300000000970F
(15.150000) vcan0 100#DF028A0201002F7A
(15.200000) vcan0 100#EA028A0201003050
(15.200000) vcan0 101#21000000282398B2
(15.200000) vcan0 200#0602EE0270019803
(15.200000) vcan0 201#8813000000009800
(15.200000) vcan0 300#000003F000004CBC
(15.250000) vcan0 100#F6028A020100314D
(15.250000) vcan0 400#2E1D040D0C2B3D24
(15.300000) vcan0 100#02038A02010032BB
(15.300000) vcan0 101#23000000282399B1
(15.300000) vcan0 200#1702EE0271019912
(15.300000) vcan0 201#8813000000009901
(15.350000) vcan0 100#0E038A02010033B6
(15.400000) vcan0 100#19038A02010034A6
(15.400000) vcan0 101#2500000028239AB4
(15.400000) vcan0 200#2702EE0271019A21
(15.400000) vcan0 201#8813000000009A02
(15.400000) vcan0 300#000003F000004DBD
(15.450000) vcan0 100#25038A020100359B
(15.500000) vcan0 100#31038A020100368C
(15.500000) vcan0 101#2800000028239BB8
(15.500000) vcan0 200#3702EE0272019B33
(15.500000) vcan0 201#8813000000009B03
(15.500000) vcan0 400#2E1DE60D0C2B3EC5
(15.500000) vcan0 500#CF008C00002A1F73
(15.550000) vcan0 100#3C038A0201003780
(15.600000) vcan0 100#48038A02010038FB
(15.600000) vcan0 101#2A00000028239CBD
(15.600000) vcan0 200#4702EE0273019C45
(15.600000) vcan0 201#8813000000009C04
(15.600000) vcan0 300#000003F000004EBE
(15.650000) vcan0 100#54038A02010039E6
(15.700000) vcan0 100#5F038A0201003AEE
(15.700000) vcan0 101#2C00000028239DBA
(15.700000) vcan0 200#5802EE0273019D5B
(15.700000) vcan0 201#8813000000009D05
(15.750000) vcan0 100#6B038A0201003BDB
(15.750000) vcan0 400#2E1DC90E0C2B3FE8
(15.800000) vcan0 100#77038A0201003CC0
(15.800000) vcan0 101#2F00000028239EBA
(15.800000) vcan0 200#6802EE0274019E6F
(15.800000) vcan0 201#8813000000009E06
(15.800000) vcan0 300#000003F000004FBF
(15.850000) vcan0 100#83038A0201003D35
(15.900000) vcan0 100#8E038A0201003E3B
(15.900000) vcan0 101#3100000028239FA5
(15.900000) vcan0 200#7802EE0274019F7E
(15.900000) vcan0 201#8813000000009F07
(15.950000) vcan0 100#9A038A0201003F2E
(16.000000) vcan0 100#A6038A020100406D
(16.000000) vcan0 101#340000002823A09F
(16.000000) vcan0 200#8802EE027501A0B0
(16.000000) vcan0 201#881300000000A038
(16.000000) vcan0 300#000003F0000050A0
(16.000000) vcan0 400#2E1DAB0F0C2B40F4
(16.000000) vcan0 500#CF008C00002A204C
(16.000000) vcan0 600#A0000000000010B6
(16.050000) vcan0 100#B1038A020100417B
(16.100000) vcan0 100#BD038A0201004274
(16.100000) vcan0 101#360000002823A19C
(16.100000) vcan0 200#9902EE027501A1A0
(16.100000) vcan0 201#881300000000A139
(16.150000) vcan0 100#C9038A0201004301
(16.200000) vcan0 100#D4038A020100441B
(16.200000) vcan0 101#390000002823A290
(16.200000) vcan0 200#A902EE027601A290
(16.200000) vcan0 201#881300000000A23A
(16.200000) vcan0 300#000003F0000051A1
(16.250000) vcan0 100#E0038A020100452E
(16.250000) vcan0 400#2E1D8D100C2B41CC
(16.300000) vcan0 100#EC038A0201004621
(16.300000) vcan0 101#3C0000002823A394
(16.300000) vcan0 200#B902EE027601A381
(16.300000) vcan0 201#881300000000A33B
(16.350000) vcan0 100#F8038A0201004734
(16.400000) vcan0 100#03048A02010048C7
(16.400000) vcan0 101#3F0000002823A490
(16.400000) vcan0 200#C902EE027701A4F7
(16.400000) vcan0 201#881300000000A43C
(16.400000) vcan0 300#000003F0000052A2
(16.450000) vcan0 100#0F048A02010049CA
(16.500000) vcan0 100#1B048A0201004ADD
(16.500000) vcan0 101#420000002823A5EC
(16.500000) vcan0 200#DA02EE027801A5EA
(16.500000) vcan0 201#881300000000A53D
(16.500000) vcan0 400#2F1D6F110C2B422D
(16.500000) vcan0 500#CF008C00002A214D
(16.550000) vcan0 100#26048A0201004BE1
(16.600000) vcan0 100#32048A0201004CF2
(16.600000) vcan0 101#440000002823A6E9
(16.600000) vcan0 200#EA02EE027801A6D9
(16.600000) vcan0 201#881300000000A63E
(16.600000) vcan0 300#000003F0000053A3
(16.650000) vcan0 100#3E048A0201004DFF
(16.700000) vcan0 100#49048A0201004E8B
(16.700000) vcan0 101#470000002823A7EB
(16.700000) vcan0 200#FA02EE027901A7C9
(16.700000) vcan0 201#881300000000A73F
(16.750000) vcan0 100#55048A0201004F96
(16.750000) vcan0 400#2F1D51120C2B4311
(16.800000) vcan0 100#61048A02010050BD
(16.800000) vcan0 101#4B0000002823A8E8
(16.800000) vcan0 200#0A03EE027901A837
(16.800000) vcan0 201#881300000000A830
(16.800000) vcan0 300#000003F0000054A4
(16.850000) vcan0 100#6D048A02010051B0
(16.900000) vcan0 100#78048A02010052A6
(16.900000) vcan0 101#4E0000002823A9EC
(16.900000) vcan0 200#1B03EE027A01A924
(16.900000) vcan0 201#881300000000A931
(16.950000) vcan0 100#84048A020100535B
(17.000000) vcan0 100#90048A0201005448
(17.000000) vcan0 101#510000002823AAF0
(17.000000) vcan0 200#2B03EE027A01AA17
(17.000000) vcan0 201#881300000000AA32
(17.000000) vcan0 300#000003F0000055A5
(17.000000) vcan0 400#301D32130C2B446B
(17.000000) vcan0 500#CF008C00002A224E
(17.000000) vcan0 600#AA000000000011BD
(17.050000) vcan0 100#9B048A0201005542
(17.100000) vcan0 100#A7048A020100567D
(17.100000) vcan0 101#540000002823ABF4
(17.100000) vcan0 200#3B03EE027B01AB07
(17.100000) vcan0 201#881300000000AB33
(17.150000) vcan0 100#B3048A0201005768
(17.200000) vcan0 100#BE048A020100586A
(17.200000) vcan0 101#580000002823ACFF
(17.200000) vcan0 200#4B03EE027B01AC70
(17.200000) vcan0 201#881300000000AC34
(17.200000) vcan0 300#000003F0000056A6
(17.250000) vcan0 100#CA048A020100591F
(17.250000) vcan0 400#311D14140C2B454A
(17.300000) vcan0 100#D6048A0201005A00
(17.300000) vcan0 101#5B0000002823ADFD
(17.300000) vcan0 200#5C03EE027C01AD61
(17.300000) vcan0 201#881300000000AD35
(17.350000) vcan0 100#E2048A0201005B35
(17.400000) vcan0 100#ED048A0201005C3D
(17.400000) vcan0 101#5E0000002823AEFB
(17.400000) vcan0 200#6C03EE027D01AE53
(17.400000) vcan0 201#881300000000AE36
(17.400000) vcan0 300#000003F0000057A7
(17.450000) vcan0 100#F9048A0201005D28
(17.500000) vcan0 100#05058A0201005ED6
(17.500000) vcan0 101#620000002823AFC6
(17.500000) vcan0 200#7C03EE027D01AF42
(17.500000) vcan0 201#881300000000AF37
(17.500000) vcan0 400#321DF5140C2B46AB
(17.500000) vcan0 500#CF008C00002A234F
(17.550000) vcan0 100#10058A0201005FC2
(17.600000) vcan0 100#1C058A02010060F1
(17.600000) vcan0 101#660000002823B0DD
(17.600000) vcan0 200#8C03EE027E01B0AE
(17.600000) vcan0 201#881300000000B028
(17.600000) vcan0 300#000003F0000058A8
(17.650000) vcan0 100#28058A02010061C4
(17.700000) vcan0 100#33058A02010062DC
(17.700000) vcan0 101#690000002823B1D3
(17.700000) vcan0 200#9D03EE027E01B1BE
(17.700000) vcan0 201#881300000000B129
(17.750000) vcan0 100#3F058A02010063D1
(17.750000) vcan0 400#331DD7150C2B4788
(17.800000) vcan0 100#4B058A02010064A2
(17.800000) vcan0 101#6D0000002823B2D4
(17.800000) vcan0 200#AD03EE027F01B28C
(17.800000) vcan0 201#881300000000B22A
(17.800000) vcan0 300#000003F0000059A9
(17.850000) vcan0 100#57058A02010065BF
(17.900000) vcan0 100#62058A0201006689
(17.900000) vcan0 101#710000002823B3C9
(17.900000) vcan0 200#BD03EE027F01B39D
(17.900000) vcan0 201#881300000000B32B
(17.950000) vcan0 100#6E058A0201006784
(18.000000) vcan0 100#7A058A020100689F
(18.000000) vcan0 101#750000002823B4CA
(18.000000) vcan0 200#CD03EE028001B415
(18.000000) vcan0 201#881300000000B42C
(18.000000) vcan0 300#000003F000005AAA
(18.000000) vcan0 400#351DB8160C2B48ED
(18.000000) vcan0 500#CF008C00002A2448
(18.000000) vcan0 600#B4000000000012A0
(18.050000) vcan0 100#85058A0201006961
(18.100000) vcan0 100#91058A0201006A76
(18.100000) vcan0 101#790000002823B5C7
(18.100000) vcan0 200#DE03EE028001B507
(18.100000) vcan0 201#881300000000B52D
(18.150000) vcan0 100#9D058A0201006B7B
(18.200000) vcan0 100#A8058A0201006C49
(18.200000) vcan0 101#7D0000002823B6C0
(18.200000) vcan0 200#EE03EE028101B635
(18.200000) vcan0 201#881300000000B62E
(18.200000) vcan0 300#000003F000005BAB
(18.250000) vcan0 100#B4058A0201006D54
(18.250000) vcan0 400#361D99170C2B49CF
(18.300000) vcan0 100#C0058A0201006E23
(18.300000) vcan0 101#810000002823B73D
(18.300000) vcan0 200#FE03EE028101B724
(18.300000) vcan0 201#881300000000B72F
(18.350000) vcan0 100#CC058A0201006F2E
(18.400000) vcan0 100#D7058A020100702A
(18.400000) vcan0 101#850000002823B836
(18.400000) vcan0 200#0E04EE028201B8DF
(18.400000) vcan0 201#881300000000B820
(18.400000) vcan0 300#000003F000005CAC
(18.450000) vcan0 100#E3058A020100711F
(18.500000) vcan0 100#EF058A0201007210
(18.500000) vcan0 101#890000002823B93B
(18.500000) vcan0 200#1F04EE028301B9CE
(18.500000) vcan0 201#881300000000B921
(18.500000) vcan0 400#381D79180C2B4A2D
(18.500000) vcan0 500#CF008C00002A2549
(18.550000) vcan0 100#FA058A0201007304
(18.600000) vcan0 100#06068A02010074FC
(18.600000) vcan0 101#8D0000002823BA3C
(18.600000) vcan0 200#2F04EE028301BAFD
(18.600000) vcan0 201#881300000000BA22
(18.600000) vcan0 300#000003F000005DAD
(18.650000) vcan0 100#12068A02010075E9
(18.700000) vcan0 100#1D068A02010076E5
(18.700000) vcan0 101#910000002823BB21
(18.700000) vcan0 200#3F04EE028401BBEB
(18.700000) vcan0 201#881300000000BB23
(18.750000) vcan0 100#29068A02010077D0
(18.750000) vcan0 400#3A1D5A190C2B4B0C
(18.800000) vcan0 100#35068A02010078C3
(18.800000) vcan0 101#960000002823BC21
(18.800000) vcan0 200#4F04EE028401BC9C
(18.800000) vcan0 201#881300000000BC24
(18.800000) vcan0 300#000003F000005EAE
(18.850000) vcan0 100#41068A02010079B6
(18.900000) vcan0 100#4C068A0201007AB8
(18.900000) vcan0 101#9A0000002823BD2C
(18.900000) vcan0 200#6004EE028501BDB3
(18.900000) vcan0 201#881300000000BD25
(18.950000) vcan0 100#58068A0201007BAD
(19.000000) vcan0 100#64068A0201007C96
(19.000000) vcan0 101#9F0000002823BE2A
(19.000000) vcan0 200#7004EE028501BEA0
(19.000000) vcan0 201#881300000000BE26
(19.000000) vcan0 300#000003F000005FAF
(19.000000) vcan0 400#3B1D3A1A0C2B4C69
(19.000000) vcan0 500#CF008C00002A264A
(19.000000) vcan0 600#BE000000000013AB
(19.050000) vcan0 100#6F068A0201007D9C
(19.100000) vcan0 100#7B068A0201007E8B
(19.100000) vcan0 101#A30000002823BF17
(19.100000) vcan0 200#8004EE028601BF52
(19.100000) vcan0 201#881300000000BF27
(19.150000) vcan0 100#87068A0201007F76
(19.200000) vcan0 100#92068A020100809C
(19.200000) vcan0 101#A80000002823C063
(19.200000) vcan0 200#9004EE028601C03D
(19.200000) vcan0 201#881300000000C058
(19.200000) vcan0 300#000003F000006090
(19.250000) vcan0 100#9E068A0201008191
(19.250000) vcan0 400#3D1D1A1B0C2B4D4F
(19.300000) vcan0 100#AA068A02010082A6
(19.300000) vcan0 101#AD0000002823C167
(19.300000) vcan0 200#A104EE028701C10C
(19.300000) vcan0 201#881300000000C159
(19.350000) vcan0 100#B6068A02010083BB
(19.400000) vcan0 100#C1068A02010084CB
(19.400000) vcan0 101#B10000002823C278
(19.400000) vcan0 200#B104EE028701C21F
(19.400000) vcan0 201#881300000000C25A
(19.400000) vcan0 300#000003F000006191
(19.450000) vcan0 100#CD068A02010085C6
(19.500000) vcan0 100#D9068A02010086D1
(19.500000) vcan0 101#B60000002823C37E
(19.500000) vcan0 200#C104EE028801C361
(19.500000) vcan0 201#881300000000C35B
(19.500000) vcan0 400#3F1DFA1B0C2B4EAE
(19.500000) vcan0 500#CF008C00002A274B
(19.550000) vcan0 100#E4068A02010087ED
(19.600000) vcan0 100#F0068A02010088F6
(19.600000) vcan0 101#BB0000002823C474
(19.600000) vcan0 200#D104EE028901C477
(19.600000) vcan0 201#881300000000C45C
(19.600000) vcan0 300#000003F000006292
(19.650000) vcan0 100#FC068A02010089FB
(19.700000) vcan0 100#07078A0201008A02
(19.700000) vcan0 101#C00000002823C50E
(19.700000) vcan0 200#E204EE028901C545
(19.700000) vcan0 201#881300000000C55D
(19.750000) vcan0 100#13078A0201008B17
(19.750000) vcan0 400#411DDA1C0C2B4FF6
(19.800000) vcan0 100#1F078A0201008C1C
(19.800000) vcan0 101#C50000002823C608
(19.800000) vcan0 200#F204EE028A01C655
(19.800000) vcan0 201#881300000000C65E
(19.800000) vcan0 300#000003F000006393
(19.850000) vcan0 100#2B078A0201008D29
(19.900000) vcan0 100#36078A0201008E37
(19.900000) vcan0 101#CA0000002823C706
(19.900000) vcan0 200#0205EE028A01C7A5
(19.900000) vcan0 201#881300000000C75F
(19.950000) vcan0 100#42078A0201008F42
(20.000000) vcan0 100#4E078A0201009051
(20.000000) vcan0 101#CF0000002823C80C
(20.000000) vcan0 200#1205EE028B01C8BB
(20.000000) vcan0 201#881300000000C850
(20.000000) vcan0 300#000003F000006494
(20.000000) vcan0 400#441DBA1D0C2B508D
(20.000000) vcan0 500#CF008C00002A2844
(20.000000) vcan0 600#C8000000000014DA
(20.050000) vcan0 100#59078A0201009147
(20.100000) vcan0 100#65078A0201009278
(20.100000) vcan0 101#D50000002823C917
(20.100000) vcan0 200#2305EE028B01C98B
(20.100000) vcan0 201#881300000000C951
(20.150000) vcan0 100#71078A020100936D
(20.200000) vcan0 100#7C078A0201009467
(20.200000) vcan0 101#DA0000002823CA1B
(20.200000) vcan0 200#3305EE028C01CA9F
(20.200000) vcan0 201#881300000000CA52
(20.200000) vcan0 300#000003F000006595
(20.250000) vcan0 100#88078A0201009592
(20.250000) vcan0 400#461D991E0C2B51AE
(20.300000) vcan0 100#94078A020100968D
(20.300000) vcan0 101#DF0000002823CB1F
(20.300000) vcan0 200#4305EE028C01CBEE
(20.300000) vcan0 201#881300000000CB53
(20.350000) vcan0 100#A0078A02010097B8
(20.400000) vcan0 100#AB078A02010098BC
(20.400000) vcan0 101#E50000002823CC22
(20.400000) vcan0 200#5305EE028D01CCF8
(20.400000) vcan0 201#881300000000CC54
(20.400000) vcan0 300#000003F000006696
(20.450000) vcan0 100#B7078A02010099A1
(20.500000) vcan0 100#C3078A0201009AD6
(20.500000) vcan0 101#EA0000002823CD2C
(20.500000) vcan0 200#6405EE028D01CDCE
(20.500000) vcan0 201#881300000000CD55
(20.500000) vcan0 400#481D781F0C2B5243
(20.500000) vcan0 500#CF008C00012A2944
(20.550000) vcan0 100#CE078A0201009BDA
(20.600000) vcan0 100#DA078A0201009CC9
(20.600000) vcan0 101#F00000002823CE35
(20.600000) vcan0 200#7405EE028E01CEDE
(20.600000) vcan0 201#881300000000CE56
(20.600000) vcan0 300#000003F000006797
(20.650000) vcan0 100#E6078A0201009DF4
(20.700000) vcan0 100#F1078A0201009EE0
(20.700000) vcan0 101#F50000002823CF31
(20.700000) vcan0 200#8405EE028E01CF2F
(20.700000) vcan0 201#881300000000CF57
(20.750000) vcan0 100#FD078A0201009FED
(20.750000) vcan0 400#4A1D57200C2B5350
(20.800000) vcan0 100#09088A020100A029
(20.800000) vcan0 101#FB0000002823D020
(20.800000) vcan0 200#9405EE028F01D021
(20.800000) vcan0 201#881300000000D048
(20.800000) vcan0 300#000003F000006898
(20.850000) vcan0 100#15088A020100A134
(20.900000) vcan0 100#20088A020100A202
(20.900000) vcan0 101#010100002823D1DA
(20.900000) vcan0 200#A505EE028F01D111
(20.900000) vcan0 201#881300000000D149
(20.950000) vcan0 100#2C088A020100A30F
(21.000000) vcan0 100#38088A020100A41C
(21.000000) vcan0 101#070100002823D2DF
(21.000000) vcan0 200#B505EE029001D21D
(21.000000) vcan0 201#881300000000D24A
(21.000000) vcan0 300#000003F000006999
(21.000000) vcan0 400#4D1D36210C2B5430
(21.000000) vcan0 500#CF008C00012A2A47
(21.000000) vcan0 600#D2000000000015C1
(21.050000) vcan0 100#43088A020100A566
(21.100000) vcan0 100#4F088A020100A669
(21.100000) vcan0 101#0D0100002823D3D4
(21.100000) vcan0 200#C505EE029001D36C
(21.100000) vcan0 201#881300000000D34B
(21.150000) vcan0 100#5B088A020100A77C
(21.200000) vcan0 100#66088A020100A84E
(21.200000) vcan0 101#120100002823D4CC
(21.200000) vcan0 200#D505EE029101D47A
(21.200000) vcan0 201#881300000000D44C
(21.200000) vcan0 300#000003F000006A9A
(21.250000) vcan0 100#72088A020100A95B
(21.250000) vcan0 400#4F1D15220C2B5513
(21.300000) vcan0 100#7E088A020100AA54
(21.300000) vcan0 101#180100002823D5C7
(21.300000) vcan0 200#E605EE029201D54B
(21.300000) vcan0 201#881300000000D54D
(21.350000) vcan0 100#8A088A020100ABA1
(21.400000) vcan0 100#95088A020100ACB9
(21.400000) vcan0 101#1F0100002823D6C3
(21.400000) vcan0 200#F605EE029201D658
(21.400000) vcan0 201#881300000000D64E
(21.400000) vcan0 300#000003F000006B9B
(21.450000) vcan0 100#A1088A020100AD8C
(21.500000) vcan0 100#AD088A020100AE83
(21.500000) vcan0 101#250100002823D7F8
(21.500000) vcan0 200#0606EE029301D7AB
(21.500000) vcan0 201#881300000000D74F
(21.500000) vcan0 400#511DF4220C2B56EF
(21.500000) vcan0 500#CF008C00012A2B46
(21.550000) vcan0 100#B8088A020100AF97
(21.600000) vcan0 100#C4088A020100B0F4
(21.600000) vcan0 101#2B0100002823D8F9
(21.600000) vcan0 200#1606EE029301D8B4
(21.600000) vcan0 201#881300000000D840
(21.600000) vcan0 300#000003F000006C9C
(21.650000) vcan0 100#D0088A020100B1E1
(21.700000) vcan0 100#DB088A020100B2E9
(21.700000) vcan0 101#310100002823D9E2
(21.700000) vcan0 200#2706EE029401D983
(21.700000) vcan0 201#881300000000D941
(21.750000) vcan0 100#E7088A020100B3D4
(21.750000) vcan0 400#531DD3230C2B57CA
(21.800000) vcan0 100#F3088A020100B4C7
(21.800000) vcan0 101#370100002823DAE7
(21.800000) vcan0 200#3706EE029401DA90
(21.800000) vcan0 201#881300000000DA42
(21.800000) vcan0 300#000003F000006D9D
(21.850000) vcan0 100#FF088A020100B5CA
(21.900000) vcan0 100#0A098A020100B63D
(21.900000) vcan0 101#3E0100002823DBEF
(21.900000) vcan0 200#4706EE029501DBE0
(21.900000) vcan0 201#881300000000DB43
(21.950000) vcan0 100#16098A020100B720
(22.000000) vcan0 100#22098A020100B81B
(22.000000) vcan0 101#440100002823DC92
(22.000000) vcan0 200#5706EE029501DCF7
(22.000000) vcan0 201#881300000000DC44
(22.000000) vcan0 300#000003F000006E9E
(22.000000) vcan0 400#551DB1240C2B58A6
(22.000000) vcan0 500#CF008C00012A2C41
(22.000000) vcan0 600#DC000000000016CC
(22.050000) vcan0 100#2D098A020100B915
(22.100000) vcan0 100#39098A020100BA02
(22.100000) vcan0 101#4B0100002823DD9C
(22.100000) vcan0 200#6806EE029601DDCA
(22.100000) vcan0 201#881300000000DD45
(22.150000) vcan0 100#45098A020100BB7F
(22.200000) vcan0 100#50098A020100BC6D
(22.200000) vcan0 101#510100002823DE85
(22.200000) vcan0 200#7806EE029601DED9
(22.200000) vcan0 201#881300000000DE46
(22.200000) vcan0 300#000003F000006F9F
(22.250000) vcan0 100#5C098A020100BD60
(22.250000) vcan0 400#571D90250C2B5985
(22.300000) vcan0 100#68098A020100BE57
(22.300000) vcan0 101#580100002823DF8D
(22.300000) vcan0 200#8806EE029701DF29
(22.300000) vcan0 201#881300000000DF47
(22.350000) vcan0 100#74098A020100BF4A
(22.400000) vcan0 100#7F098A020100C03E
(22.400000) vcan0 101#5F0100002823E0B5
(22.400000) vcan0 200#9806EE029701E006
(22.400000) vcan0 201#881300000000E078
(22.400000) vcan0 300#000003F000007080
(22.450000) vcan0 100#8B098A020100C1CB
(22.500000) vcan0 100#97098A020100C2D4
(22.500000) vcan0 101#660100002823E18D
(22.500000) vcan0 200#A906EE029801E139
(22.500000) vcan0 201#881300000000E179
(22.500000) vcan0 400#5A1D6E260C2B5A76
(22.500000) vcan0 500#CF008C00012A2D40
(22.550000) vcan0 100#A2098A020100C3E0
(22.600000) vcan0 100#AE098A020100C4EB
(22.600000) vcan0 101#6C0100002823E284
(22.600000) vcan0 200#B906EE029801E22A
(22.600000) vcan0 201#881300000000E27A
(22.600000) vcan0 300#000003F000007181
(22.650000) vcan0 100#BA098A020100C5FE
(22.700000) vcan0 100#C5098A020100C682
(22.700000) vcan0 101#730100002823E39A
(22.700000) vcan0 200#C906EE029901E35A
(22.700000) vcan0 201#881300000000E37B
(22.750000) vcan0 100#D1098A020100C797
(22.750000) vcan0 400#5B1D4C270C2B5B55
(22.800000) vcan0 100#DD098A020100C894
(22.800000) vcan0 101#7A0100002823E494
(22.800000) vcan0 200#D906EE029901E44D
(22.800000) vcan0 201#881300000000E47C
(22.800000) vcan0 300#000003F000007282
(22.850000) vcan0 100#E9098A020100C9A1
(22.900000) vcan0 100#F4098A020100CABF
(22.900000) vcan0 101#810100002823E56E
(22.900000) vcan0 200#EA06EE029A01E57C
(22.900000) vcan0 201#881300000000E57D
(22.950000) vcan0 100#000A8A020100CB49
(23.000000) vcan0 100#0C0A8A020100CC42
(23.000000) vcan0 101#890100002823E665
(23.000000) vcan0 200#FA06EE029A01E66F
(23.000000) vcan0 201#881300000000E67E
(23.000000) vcan0 300#000003F000007383
(23.000000) vcan0 400#5D1D2B280C2B5C3C
(23.000000) vcan0 500#CF008C00012A2E43
(23.000000) vcan0 600#E6000000000017F7
(23.050000) vcan0 100#170A8A020100CD58
(23.100000) vcan0 100#230A8A020100CE6F
(23.100000) vcan0 101#900100002823E77D
(23.100000) vcan0 200#0A07EE029B01E79E
(23.100000) vcan0 201#881300000000E77F
(23.150000) vcan0 100#2F0A8A020100CF62
(23.200000) vcan0 100#3A0A8A020100D068
(23.200000) vcan0 101#970100002823E875
(23.200000) vcan0 200#1A07EE029B01E881
(23.200000) vcan0 201#881300000000E870
(23.200000) vcan0 300#000003F000007484
(23.250000) vcan0 100#460A8A020100D115
(23.250000) vcan0 400#5F1D09290C2B5D1C
(23.300000) vcan0 100#520A8A020100D202
(23.300000) vcan0 101#9E0100002823E97D
(23.300000) vcan0 200#2B07EE029C01E9B6
(23.300000) vcan0 201#881300000000E971
(23.350000) vcan0 100#5E0A8A020100D30F
(23.400000) vcan0 100#690A8A020100D43F
(23.400000) vcan0 101#A60100002823EA46
(23.400000) vcan0 200#3B07EE029C01EAA5
(23.400000) vcan0 201#881300000000EA72
(23.400000) vcan0 300#000003F000007585
(23.450000) vcan0 100#750A8A020100D522
(23.500000) vcan0 100#810A8A020100D6D5
(23.500000) vcan0 101#AD0100002823EB4C
(23.500000) vcan0 200#4B07EE029D01EBD5
(23.500000) vcan0 201#881300000000EB73
(23.500000) vcan0 400#611DE8290C2B5EC0
(23.500000) vcan0 500#CF008C00012A2F42
(23.550000) vcan0 100#8C0A8A020100D7D9
(23.600000) vcan0 100#980A8A020100D8C2
(23.600000) vcan0 101#B50100002823EC53
(23.600000) vcan0 200#5B07EE029D01ECC2
(23.600000) vcan0 201#881300000000EC74
(23.600000) vcan0 300#000003F000007686
(23.650000) vcan0 100#A40A8A020100D9FF
(23.700000) vcan0 100#AF0A8A020100DAF7
(23.700000) vcan0 101#BC0100002823ED5B
(23.700000) vcan0 200#6C07EE029E01EDF7
(23.700000) vcan0 201#881300000000ED75
(23.750000) vcan0 100#BB0A8A020100DBE2
(23.750000) vcan0 400#621DC62A0C2B5FEF
(23.800000) vcan0 100#C70A8A020100DC99
(23.800000) vcan0 101#C40100002823EE20
(23.800000) vcan0 200#7C07EE029F01EEE5
(23.800000) vcan0 201#881300000000EE76
(23.800000) vcan0 300#000003F000007787
(23.850000) vcan0 100#D30A8A020100DD8C
(23.900000) vcan0 100#DE0A8A020100DE82
(23.900000) vcan0 101#CB0100002823EF2E
(23.900000) vcan0 200#8C07EE029F01EF14
(23.900000) vcan0 201#881300000000EF77
(23.950000) vcan0 100#EA0A8A020100DFB7
(24.000000) vcan0 100#F60A8A020100E094
(24.000000) vcan0 101#D30100002823F029
(24.000000) vcan0 200#9C07EE02A001F024
(24.000000) vcan0 201#881300000000F068
(24.000000) vcan0 300#000003F000007888
(24.000000) vcan0 400#641DA52B0C2B60B4
(24.000000) vcan0 500#CF008C00012A305D
(24.000000) vcan0 600#F0000000000018EE
(24.050000) vcan0 100#010B8A020100E163
(24.100000) vcan0 100#0D0B8A020100E26C
(24.100000) vcan0 101#DB0100002823F120
(24.100000) vcan0 200#AD07EE02A001F114
(24.100000) vcan0 201#881300000000F169
(24.150000) vcan0 100#190B8A020100E379
(24.200000) vcan0 100#240B8A020100E443
(24.200000) vcan0 101#E30100002823F21B
(24.200000) vcan0 200#BD07EE02A101F206
(24.200000) vcan0 201#881300000000F26A
(24.200000) vcan0 300#000003F000007989
(24.250000) vcan0 100#300B8A020100E556
(24.250000) vcan0 400#651D842C0C2B6192
(24.300000) vcan0 100#3C0B8A020100E659
(24.300000) vcan0 101#EB0100002823F312
(24.300000) vcan0 200#CD07EE02A101F377
(24.300000) vcan0 201#881300000000F36B
(24.350000) vcan0 100#480B8A020100E72C
(24.400000) vcan0 100#530B8A020100E838
(24.400000) vcan0 101#F30100002823F40D
(24.400000) vcan0 200#DD07EE02A201F463
(24.400000) vcan0 201#881300000000F46C
(24.400000) vcan0 300#000003F000007A8A
(24.450000) vcan0 100#5F0B8A020100E935
(24.500000) vcan0 100#6B0B8A020100EA02
(24.500000) vcan0 101#FB0100002823F504
(24.500000) vcan0 200#EE07EE02A201F551
(24.500000) vcan0 201#881300000000F56D
(24.500000) vcan0 400#661D622D0C2B6275
(24.500000) vcan0 500#CF008C00012A315C
(24.550000) vcan0 100#760B8A020100EB1E
(24.600000) vcan0 100#820B8A020100ECED
(24.600000) vcan0 101#030200002823F6FC
(24.600000) vcan0 200#FE07EE02A301F643
(24.600000) vcan0 201#881300000000F66E
(24.600000) vcan0 300#000003F000007B8B
(24.650000) vcan0 100#8E0B8A020100EDE0
(24.700000) vcan0 100#990B8A020100EEF4
(24.700000) vcan0 101#0B0200002823F7F5
(24.700000) vcan0 200#0E08EE02A301F7BD
(24.700000) vcan0 201#881300000000F76F
(24.750000) vcan0 100#A50B8A020100EFC9
(24.750000) vcan0 400#671D412E0C2B6355
(24.800000) vcan0 100#B10B8A020100F0C2
(24.800000) vcan0 101#140200002823F8E5
(24.800000) vcan0 200#1E08EE02A401F8A5
(24.800000) vcan0 201#881300000000F860
(24.800000) vcan0 300#000003F000007C8C
(24.850000) vcan0 100#BD0B8A020100F1CF
(24.900000) vcan0 100#C80B8A020100F2B9
(24.900000) vcan0 101#1C0200002823F9EC
(24.900000) vcan0 200#2F08EE02A401F995
(24.900000) vcan0 201#881300000000F961
(24.950000) vcan0 100#D40B8A020100F3A4
(25.000000) vcan0 100#E00B8A020100F497
(25.000000) vcan0 101#240200002823FAD7
(25.000000) vcan0 200#3F08EE02A501FA87
(25.000000) vcan0 201#881300000000FA62
(25.000000) vcan0 300#000003F000007D8D
(25.000000) vcan0 400#681D212F0C2B643C
(25.000000) vcan0 500#CF008C00012A325F
(25.000000) vcan0 600#FA000000000019E5
(25.050000) vcan0 100#EB0B8A020100F59D
(25.100000) vcan0 100#F70B8A020100F682
(25.100000) vcan0 101#2D0200002823FBDF
(25.100000) vcan0 200#4F08EE02A501FBF6
(25.100000) vcan0 201#881300000000FB63
(25.150000) vcan0 100#030C8A020100F770
(25.200000) vcan0 100#0E0C8A020100F872
(25.200000) vcan0 101#350200002823FCC0
(25.200000) vcan0 200#5F08EE02A601FCE2
(25.200000) vcan0 201#881300000000FC64
(25.200000) vcan0 300#000003F000007E8E
(25.250000) vcan0 100#1A0C8A020100F967
(25.250000) vcan0 400#691D00300C2B6502
(25.300000) vcan0 100#260C8A020100FA58
(25.300000) vcan0 101#3E0200002823FDCA
(25.300000) vcan0 200#7008EE02A601FDCC
(25.300000) vcan0 201#881300000000FD65
(25.350000) vcan0 100#320C8A020100FB4D
(25.400000) vcan0 100#3D0C8A020100FC45
(25.400000) vcan0 101#470200002823FEB0
(25.400000) vcan0 200#8008EE02A701FE3E
(25.400000) vcan0 201#881300000000FE66
(25.400000) vcan0 300#000003F000007F8F
(25.450000) vcan0 100#490C8A020100FD30
(25.500000) vcan0 100#550C8A020100FE2F
(25.500000) vcan0 101#4F0200002823FFB9
(25.500000) vcan0 200#9008EE02A701FF2F
(25.500000) vcan0 201#881300000000FF67
(25.500000) vcan0 400#691DE0300C2B66E1
(25.500000) vcan0 500#CF008C00012A335E
(25.550000) vcan0 100#600C8A020100FF1B
(25.600000) vcan0 100#6C0C8A02010000E8
(25.600000) vcan0 101#5802000028230051
(25.600000) vcan0 200#A008EE02A80100EF
(25.600000) vcan0 201#8813000000000098
(25.600000) vcan0 300#000003F000008070
(25.650000) vcan0 100#780C8A02010001FD
(25.700000) vcan0 100#830C8A0201000205
(25.700000) vcan0 101#6102000028230169
(25.700000) vcan0 200#B108EE02A80101FF
(25.700000) vcan0 201#8813000000000199
(25.750000) vcan0 100#8F0C8A0201000308
(25.750000) vcan0 400#6A1DBF310C2B67BD
(25.800000) vcan0 100#9B0C8A020100041B
(25.800000) vcan0 101#6A02000028230261
(25.800000) vcan0 200#C108EE02A901028D
(25.800000) vcan0 201#881300000000029A
(25.800000) vcan0 300#000003F000008171
(25.850000) vcan0 100#A70C8A0201000526
(25.900000) vcan0 100#B20C8A0201000630
(25.900000) vcan0 101#7302000028230379
(25.900000) vcan0 200#D108EE02A901039C
(25.900000) vcan0 201#881300000000039B
(25.950000) vcan0 100#BE0C8A020100073D
(26.000000) vcan0 100#CA0C8A0201000846
(26.000000) vcan0 101#7C02000028230471
(26.000000) vcan0 200#E108EE02AA0104A8
(26.000000) vcan0 201#881300000000049C
(26.000000) vcan0 300#000003F000008272
(26.000000) vcan0 400#6A1D9F320C2B6891
(26.000000) vcan0 500#CF008C00012A3459
(26.000000) vcan0 600#0401000000001A19
(26.050000) vcan0 100#D50C8A0201000958
(26.100000) vcan0 100#E10C8A0201000A6F
(26.100000) vcan0 101#8502000028230589
(26.100000) vcan0 200#F208EE02AA0105BA
(26.100000) vcan0 201#881300000000059D
(26.150000) vcan0 100#ED0C8A0201000B62
(26.200000) vcan0 100#F80C8A0201000C70
(26.200000) vcan0 101#8E02000028230681
(26.200000) vcan0 200#0209EE02AB010649
(26.200000) vcan0 201#881300000000069E
(26.200000) vcan0 300#000003F000008373
(26.250000) vcan0 100#040D8A0201000D8C
(26.250000) vcan0 400#6A1D80330C2B698E
(26.300000) vcan0 100#100D8A0201000E9B
(26.300000) vcan0 101#9802000028230796
(26.300000) vcan0 200#1209EE02AB010758
(26.300000) vcan0 201#881300000000079F
(26.350000) vcan0 100#1C0D8A0201000F96
(26.400000) vcan0 100#270D8A02010010B2
(26.400000) vcan0 101#A1020000282308A0
(26.400000) vcan0 200#2209EE02AC010860
(26.400000) vcan0 201#8813000000000890
(26.400000) vcan0 300#000003F000008474
(26.450000) vcan0 100#330D8A02010011A7
(26.500000) vcan0 100#3F0D8A02010012A8
(26.500000) vcan0 101#AA020000282309AA
(26.500000) vcan0 200#3309EE02AC010970
(26.500000) vcan0 201#8813000000000991
(26.500000) vcan0 400#6A1D61340C2B6A6B
(26.500000) vcan0 500#CF008C00012A3558
(26.550000) vcan0 100#4A0D8A02010013DC
(26.600000) vcan0 100#560D8A02010014C7
(26.600000) vcan0 101#B402000028230AB7
(26.600000) vcan0 200#4309EE02AD010A02
(26.600000) vcan0 201#8813000000000A92
(26.600000) vcan0 300#000003F000008575
(26.650000) vcan0 100#620D8A02010015F2
(26.700000) vcan0 100#6D0D8A02010016FE
(26.700000) vcan0 101#BD02000028230BBF
(26.700000) vcan0 200#5309EE02AD010B13
(26.700000) vcan0 201#8813000000000B93
(26.750000) vcan0 100#790D8A02010017EB
(26.750000) vcan0 400#6A1D41350C2B6B4B
(26.800000) vcan0 100#850D8A0201001818
(26.800000) vcan0 101#C702000028230CC2
(26.800000) vcan0 200#6309EE02AE010C27
(26.800000) vcan0 201#8813000000000C94
(26.800000) vcan0 300#000003F000008676
(26.850000) vcan0 100#910D8A020100190D
(26.900000) vcan0 100#9C0D8A0201001A03
(26.900000) vcan0 101#D102000028230DD5
(26.900000) vcan0 200#7409EE02AE010D31
(26.900000) vcan0 201#8813000000000D95
(26.950000) vcan0 100#A80D8A0201001B36
(27.000000) vcan0 100#B40D8A0201001C2D
(27.000000) vcan0 101#DA02000028230EDD
(27.000000) vcan0 200#8409EE02AF010EC3
(27.000000) vcan0 201#8813000000000E96
(27.000000) vcan0 300#000003F000008777
(27.000000) vcan0 400#691D23360C2B6C2E
(27.000000) vcan0 500#CF008C00012A365B
(27.000000) vcan0 600#0E01000000001B12
(27.050000) vcan0 100#BF0D8A0201001D27
(27.100000) vcan0 100#CB0D8A0201001E50
(27.100000) vcan0 101#E402000028230FE2
(27.100000) vcan0 200#9409EE02AF010FD2
(27.100000) vcan0 201#8813000000000F97
(27.150000) vcan0 100#D70D8A0201001F4D
(27.200000) vcan0 100#E20D8A0201002047
(27.200000) vcan0 101#EE020000282310F7
(27.200000) vcan0 200#A409EE02B00110E2
(27.200000) vcan0 201#8813000000001088
(27.200000) vcan0 300#000003F000008878
(27.250000) vcan0 100#EE0D8A020100214A
(27.250000) vcan0 400#681D04370C2B6D08
(27.300000) vcan0 100#FA0D8A020100225D
(27.300000) vcan0 101#F8020000282311E0
(27.300000) vcan0 200#B509EE02B00111F2
(27.300000) vcan0 201#8813000000001189
(27.350000) vcan0 100#060E8A02010023A3
(27.400000) vcan0 100#110E8A02010024B3
(27.400000) vcan0 101#0203000028231218
(27.400000) vcan0 200#C509EE02B1011280
(27.400000) vcan0 201#881300000000128A
(27.400000) vcan0 300#000003F000008979
(27.450000) vcan0 100#1D0E8A02010025BE
(27.500000) vcan0 100#290E8A0201002689
(27.500000) vcan0 101#0C03000028231317
(27.500000) vcan0 200#D509EE02B1011391
(27.500000) vcan0 201#881300000000138B
(27.500000) vcan0 400#681DE6370C2B6EE9
(27.500000) vcan0 500#CF008C00012A375A
(27.550000) vcan0 100#340E8A0201002795
(27.600000) vcan0 100#400E8A02010028EE
(27.600000) vcan0 101#160300002823140A
(27.600000) vcan0 200#E509EE02B20114A5
(27.600000) vcan0 201#881300000000148C
(27.600000) vcan0 300#000003F000008A7A
(27.650000) vcan0 100#4C0E8A02010029E3
(27.700000) vcan0 100#570E8A0201002AFB
(27.700000) vcan0 101#200300002823153D
(27.700000) vcan0 200#F609EE02B20115B7
(27.700000) vcan0 201#881300000000158D
(27.750000) vcan0 100#630E8A0201002BCE
(27.750000) vcan0 400#671DC9380C2B6FC7
(27.800000) vcan0 100#6F0E8A0201002CC5
(27.800000) vcan0 101#2A03000028231634
(27.800000) vcan0 200#060AEE02B3011646
(27.800000) vcan0 201#881300000000168E
(27.800000) vcan0 300#000003F000008B7B
(27.850000) vcan0 100#7B0E8A0201002DD0
(27.900000) vcan0 100#860E8A0201002E2E
(27.900000) vcan0 101#350300002823172A
(27.900000) vcan0 200#160AEE02B3011757
(27.900000) vcan0 201#881300000000178F
(27.950000) vcan0 100#920E8A0201002F3B
(28.000000) vcan0 100#9E0E8A0201003028
(28.000000) vcan0 101#3F0300002823182F
(28.000000) vcan0 200#260AEE02B401186F
(28.000000) vcan0 201#8813000000001880
(28.000000) vcan0 300#000003F000008C7C
(28.000000) vcan0 400#661DAB390C2B70BA
(28.000000) vcan0 500#CF008C00012A3855
(28.000000) vcan0 600#1801000000001C03
(28.050000) vcan0 100#A90E8A020100311E
(28.100000) vcan0 100#B50E8A0201003201
(28.100000) vcan0 101#4903000028231958
(28.100000) vcan0 200#370AEE02B401197F
(28.100000) vcan0 201#8813000000001981
(28.150000) vcan0 100#C10E8A0201003374
(28.200000) vcan0 100#CC0E8A020100347E
(28.200000) vcan0 101#5403000028231A46
(28.200000) vcan0 200#470AEE02B4011A0C
(28.200000) vcan0 201#8813000000001A82
(28.200000) vcan0 300#000003F000008D7D
(28.250000) vcan0 100#D80E8A020100356B
(28.250000) vcan0 400#641D8E3A0C2B719F
(28.300000) vcan0 100#E40E8A0201003654
(28.300000) vcan0 101#5E03000028231B4D
(28.300000) vcan0 200#570AEE02B5011B1C
(28.300000) vcan0 201#8813000000001B83
(28.350000) vcan0 100#F00E8A0201003741
(28.400000) vcan0 100#FB0E8A0201003845
(28.400000) vcan0 101#6903000028231C7D
(28.400000) vcan0 200#670AEE02B5011C2B
(28.400000) vcan0 201#8813000000001C84
(28.400000) vcan0 300#000003F000008E7E
(28.450000) vcan0 100#070F8A02010039B9
(28.500000) vcan0 100#130F8A0201003AAE
(28.500000) vcan0 101#7403000028231D61
(28.500000) vcan0 200#780AEE02B6011D36
(28.500000) vcan0 201#8813000000001D85
(28.500000) vcan0 400#631D723B0C2B7266
(28.500000) vcan0 500#CF008C00012A3954
(28.550000) vcan0 100#1E0F8A0201003BA2
(28.600000) vcan0 100#2A0F8A0201003C91
(28.600000) vcan0 101#7E03000028231E68
(28.600000) vcan0 200#880AEE02B6011EC5
(28.600000) vcan0 201#8813000000001E86
(28.600000) vcan0 300#000003F000008F7F
(28.650000) vcan0 100#360F8A0201003D8C
(28.700000) vcan0 100#410F8A0201003EF8
(28.700000) vcan0 101#8903000028231F9E
(28.700000) vcan0 200#980AEE02B7011FD5
(28.700000) vcan0 201#8813000000001F87
(28.750000) vcan0 100#4D0F8A0201003FF5
(28.750000) vcan0 400#621D553C0C2B7346
(28.800000) vcan0 100#590F8A020100409E
(28.800000) vcan0 101#94030000282320BC
(28.800000) vcan0 200#A80AEE02B70120DA
(28.800000) vcan0 201#88130000000020B8
(28.800000) vcan0 300#000003F000009060
(28.850000) vcan0 100#650F8A02010041A3
(28.900000) vcan0 100#700F8A02010042B5
(28.900000) vcan0 101#9F030000282321B6
(28.900000) vcan0 200#B90AEE02B80121C5
(28.900000) vcan0 201#88130000000021B9
(28.950000) vcan0 100#7C0F8A02010043B8
(29.000000) vcan0 100#880F8A020100444B
(29.000000) vcan0 101#AA03000028232280
(29.000000) vcan0 200#C90AEE02B80122B6
(29.000000) vcan0 201#88130000000022BA
(29.000000) vcan0 300#000003F000009161
(29.000000) vcan0 400#601D393D0C2B742E
(29.000000) vcan0 500#CF008C00012A3A57
(29.000000) vcan0 600#2201000000001D38
(29.050000) vcan0 100#930F8A0201004551
(29.100000) vcan0 100#9F0F8A020100465E
(29.100000) vcan0 101#B50300002823239E
(29.100000) vcan0 200#D90AEE02B90123A6
(29.100000) vcan0 201#88130000000023BB
(29.150000) vcan0 100#AB0F8A020100476B
(29.200000) vcan0 100#B60F8A0201004879
(29.200000) vcan0 101#C0030000282324EC
(29.200000) vcan0 200#E90AEE02B9012491
(29.200000) vcan0 201#88130000000024BC
(29.200000) vcan0 300#000003F000009262
(29.250000) vcan0 100#C20F8A020100490C
(29.250000) vcan0 400#5E1D1D3E0C2B7536
(29.300000) vcan0 100#CE0F8A0201004A03
(29.300000) vcan0 101#CC030000282325E1
(29.300000) vcan0 200#FA0AEE02BA012580
(29.300000) vcan0 201#88130000000025BD
(29.350000) vcan0 100#DA0F8A0201004B16
(29.400000) vcan0 100#E50F8A0201004C2E
(29.400000) vcan0 101#D7030000282326F9
(29.400000) vcan0 200#0A0BEE02BA012672
(29.400000) vcan0 201#88130000000026BE
(29.400000) vcan0 300#000003F000009363
(29.450000) vcan0 100#F10F8A0201004D3B
(29.500000) vcan0 100#FD0F8A0201004E34
(29.500000) vcan0 101#E2030000282327CD
(29.500000) vcan0 200#1A0BEE02BB012762
(29.500000) vcan0 201#88130000000027BF
(29.500000) vcan0 400#5C1D023F0C2B7629
(29.500000) vcan0 500#CF008C00012A3B56
(29.550000) vcan0 100#08108A0201004FDF
(29.600000) vcan0 100#14108A02010050DC
(29.600000) vcan0 101#EE030000282328CE
(29.600000) vcan0 200#2A0BEE02BB01285D
(29.600000) vcan0 201#88130000000028B0
(29.600000) vcan0 300#000003F000009464
(29.650000) vcan0 100#20108A02010051E9
(29.700000) vcan0 100#2B108A02010052E1
(29.700000) vcan0 101#F9030000282329D8
(29.700000) vcan0 200#3B0BEE02BC01294A
(29.700000) vcan0 201#88130000000029B1
(29.750000) vcan0 100#37108A02010053FC
(29.750000) vcan0 400#5A1DE73F0C2B77CB
(29.800000) vcan0 100#43108A020100548F
(29.800000) vcan0 101#0504000028232A20
(29.800000) vcan0 200#4B0BEE02BC012A39
(29.800000) vcan0 201#8813000000002AB2
(29.800000) vcan0 300#000003F000009565
(29.850000) vcan0 100#4F108A0201005582
(29.900000) vcan0 100#5A108A0201005694
(29.900000) vcan0 101#1004000028232B34
(29.900000) vcan0 200#5B0BEE02BD012B29
(29.900000) vcan0 201#8813000000002BB3
(29.950000) vcan0 100#66108A02010057A9
(30.000000) vcan0 100#72108A02010058B2
(30.000000) vcan0 101#1C04000028232C3F
(30.000000) vcan0 200#6B0BEE02BD012C1E
(30.000000) vcan0 201#8813000000002CB4
(30.000000) vcan0 300#000003F000009666
(30.000000) vcan0 400#581DCC400C2B7892
(30.000000) vcan0 500#CF008C00012A3C51
(30.000000) vcan0 600#2C01000000001E35
(30.050000) vcan0 100#7D108A02010059BC
(30.100000) vcan0 100#89108A0201005A4B
(30.100000) vcan0 101#2804000028232D0A
(30.100000) vcan0 200#7C0BEE02BE012D0B
(30.100000) vcan0 201#8813000000002DB5
(30.150000) vcan0 100#95108A0201005B56
(30.200000) vcan0 100#A0108A0201005C64
(30.200000) vcan0 101#3304000028232E12
(30.200000) vcan0 200#8C0BEE02BE012EF8
(30.200000) vcan0 201#8813000000002EB6
(30.200000) vcan0 300#000003F000009767
(30.250000) vcan0 100#AC108A0201005D69
(30.250000) vcan0 400#561DB2410C2B79E2
(30.300000) vcan0 100#B8108A0201005E7E
(30.300000) vcan0 101#3F04000028232F1F
(30.300000) vcan0 200#9C0BEE02BF012FE8
(30.300000) vcan0 201#8813000000002FB7
(30.350000) vcan0 100#C4108A0201005F03
(30.400000) vcan0 100#CF108A0201006037
(30.400000) vcan0 101#4B04000028233074
(30.400000) vcan0 200#AC0BEE02BF0130C7
(30.400000) vcan0 201#88130000000030A8
(30.400000) vcan0 300#000003F000009868
(30.450000) vcan0 100#DB108A0201006122
(30.500000) vcan0 100#E7108A020100621D
(30.500000) vcan0 101#5704000028233169
(30.500000) vcan0 200#BD0BEE02C00131A8
(30.500000) vcan0 201#88130000000031A9
(30.500000) vcan0 400#541D98420C2B7ACA
(30.500000) vcan0 500#CF008C00012A3D50
(30.550000) vcan0 100#F2108A0201006309
(30.600000) vcan0 100#FE108A0201006402
(30.600000) vcan0 101#630400002823325E
(30.600000) vcan0 200#CD0BEE02C00132DB
(30.600000) vcan0 201#88130000000032AA
(30.600000) vcan0 300#000003F000009969
(30.650000) vcan0 100#0A118A02010065F6
(30.700000) vcan0 100#15118A02010066EA
(30.700000) vcan0 101#6F04000028233353
(30.700000) vcan0 200#DD0BEE02C10133CB
(30.700000) vcan0 201#88130000000033AB
(30.750000) vcan0 100#21118A02010067DF
(30.750000) vcan0 400#521D7E430C2B7B2A
(30.800000) vcan0 100#2D118A02010068DC
(30.800000) vcan0 101#7B04000028233440
(30.800000) vcan0 200#ED0BEE02C10134FC
(30.800000) vcan0 201#88130000000034AC
(30.800000) vcan0 300#000003F000009A6A
(30.850000) vcan0 100#39118A02010069C9
(30.900000) vcan0 100#44118A0201006AB7
(30.900000) vcan0 101#88040000282335B2
(30.900000) vcan0 200#FE0BEE02C10135EE
(30.900000) vcan0 201#88130000000035AD
(30.950000) vcan0 100#50118A0201006BA2
(31.000000) vcan0 100#5C118A0201006CA9
(31.000000) vcan0 101#94040000282336AD
(31.000000) vcan0 200#0E0CEE02C2013619
(31.000000) vcan0 201#88130000000036AE
(31.000000) vcan0 300#000003F000009B6B
(31.000000) vcan0 400#501D64440C2B7C32
(31.000000) vcan0 500#CE008C00012A3E52
(31.000000) vcan0 600#3601000000001F2E
(31.050000) vcan0 100#67118A0201006D93
(31.100000) vcan0 100#73118A0201006E84
(31.100000) vcan0 101#A004000028233798
(31.100000) vcan0 200#1E0CEE02C2013708
(31.100000) vcan0 201#88130000000037AF
(31.150000) vcan0 100#7F118A0201006F89
(31.200000) vcan0 100#8A118A0201007063
(31.200000) vcan0 101#AD0400002823389A
(31.200000) vcan0 200#2E0CEE02C3013836
(31.200000) vcan0 201#88130000000038A0
(31.200000) vcan0 300#000003F000009C6C
(31.250000) vcan0 100#96118A020100717E
(31.250000) vcan0 400#4D1D4A450C2B7D01
(31.300000) vcan0 100#A2118A0201007249
(31.300000) vcan0 101#B90400002823398F
(31.300000) vcan0 200#3F0CEE02C3013926
(31.300000) vcan0 201#88130000000039A1
(31.350000) vcan0 100#AE118A0201007344
(31.400000) vcan0 100#B9118A0201007454
(31.400000) vcan0 101#C604000028233AF3
(31.400000) vcan0 200#4F0CEE02C4013A52
(31.400000) vcan0 201#8813000000003AA2
(31.400000) vcan0 300#000003F000009D6D
(31.450000) vcan0 100#C5118A0201007529
(31.500000) vcan0 100#D1118A020100763E
(31.500000) vcan0 101#D304000028233BE7
(31.500000) vcan0 200#5F0CEE02C4013B43
(31.500000) vcan0 201#8813000000003BA3
(31.500000) vcan0 400#4B1D31460C2B7E7C
(31.500000) vcan0 500#CE008C00012A3F53
(31.550000) vcan0 100#DC118A0201007732
(31.600000) vcan0 100#E8118A0201007809
(31.600000) vcan0 101#DF04000028233CEC
(31.600000) vcan0 200#6F0CEE02C5013C75
(31.600000) vcan0 201#8813000000003CA4
(31.600000) vcan0 300#000003F000009E6E
(31.650000) vcan0 100#F4118A0201007914
(31.700000) vcan0 100#FF118A0201007A1C
(31.700000) vcan0 101#EC04000028233DDE
(31.700000) vcan0 200#800CEE02C5013D9B
(31.700000) vcan0 201#8813000000003DA5
(31.750000) vcan0 100#0B128A0201007BEA
(31.750000) vcan0 400#491D17470C2B7F58
(31.800000) vcan0 100#17128A0201007CF1
(31.800000) vcan0 101#F904000028233EC8
(31.800000) vcan0 200#900CEE02C6013E8B
(31.800000) vcan0 201#8813000000003EA6
(31.800000) vcan0 300#000003F000009F6F
(31.850000) vcan0 100#23128A0201007DC4
(31.900000) vcan0 100#2E128A0201007ECA
(31.900000) vcan0 101#0605000028233F37
(31.900000) vcan0 200#A00CEE02C6013FBA
(31.900000) vcan0 201#8813000000003FA7
(31.950000) vcan0 100#3A128A0201007FDF
(32.000000) vcan0 100#46128A020100805C
(32.000000) vcan0 101#130500002823405D
(32.000000) vcan0 200#B00CEE02C70140D4
(32.000000) vcan0 201#88130000000040D8
(32.000000) vcan0 300#000003F00000A050
(32.000000) vcan0 400#471DFE470C2B8040
(32.000000) vcan0 500#CE008C00012A402C
(32.000000) vcan0 600#4001000000002067
(32.050000) vcan0 100#51128A020100814A
(32.100000) vcan0 100#5D128A0201008245
(32.100000) vcan0 101#200500002823416F
(32.100000) vcan0 200#C10CEE02C70141A4
(32.100000) vcan0 201#88130000000041D9
(32.150000) vcan0 100#69128A0201008370
(32.200000) vcan0 100#74128A020100846A
(32.200000) vcan0 101#2D05000028234261
(32.200000) vcan0 200#D10CEE02C80142B8
(32.200000) vcan0 201#88130000000042DA
(32.200000) vcan0 300#000003F00000A151
(32.250000) vcan0 100#80128A020100859F
(32.250000) vcan0 400#451DE5480C2B8157
(32.300000) vcan0 100#8C128A0201008690
(32.300000) vcan0 101#3A05000028234377
(32.300000) vcan0 200#E10CEE02C8014389
(32.300000) vcan0 201#88130000000043DB
(32.350000) vcan0 100#98128A0201008785
(32.400000) vcan0 100#A3128A02010088B1
(32.400000) vcan0 101#470500002823440D
(32.400000) vcan0 200#F10CEE02C801449E
(32.400000) vcan0 201#88130000000044DC
(32.400000) vcan0 300#000003F00000A252
(32.450000) vcan0 100#AF128A02010089BC
(32.500000) vcan0 100#BB128A0201008AAB
(32.500000) vcan0 101#540500002823451F
(32.500000) vcan0 200#020DEE02C901456C
(32.500000) vcan0 201#88130000000045DD
(32.500000) vcan0 400#421DCC490C2B827B
(32.500000) vcan0 500#CE008C00012A412D
(32.550000) vcan0 100#C6128A0201008BD7
(32.600000) vcan0 100#D2128A0201008CC4
(32.600000) vcan0 101#620500002823462A
(32.600000) vcan0 200#120DEE02C901467F
(32.600000) vcan0 201#88130000000046DE
(32.600000) vcan0 300#000003F00000A353
(32.650000) vcan0 100#DE128A0201008DC9
(32.700000) vcan0 100#E9128A0201008EFD
(32.700000) vcan0 101#6F05000028234726
(32.700000) vcan0 200#220DEE02CA01474D
(32.700000) vcan0 201#88130000000047DF
(32.750000) vcan0 100#F5128A0201008FE0
(32.750000) vcan0 400#401DB34A0C2B8304
(32.800000) vcan0 100#01138A020100900A
(32.800000) vcan0 101#7D0500002823483B
(32.800000) vcan0 200#320DEE02CA014852
(32.800000) vcan0 201#88130000000048D0
(32.800000) vcan0 300#000003F00000A454
(32.850000) vcan0 100#0D138A0201009107
(32.900000) vcan0 100#18138A0201009211
(32.900000) vcan0 101#8A050000282349CD
(32.900000) vcan0 200#430DEE02CB014923
(32.900000) vcan0 201#88130000000049D1
(32.950000) vcan0 100#24138A020100932C
(33.000000) vcan0 100#30138A020100943F
(33.000000) vcan0 101#9805000028234ADC
(33.000000) vcan0 200#530DEE02CB014A30
(33.000000) vcan0 201#8813000000004AD2
(33.000000) vcan0 300#000003F00000A555
(33.000000) vcan0 400#3E1D9A4B0C2B8455
(33.000000) vcan0 500#CE008C00012A422E
(33.000000) vcan0 600#4A0100000000216C
(33.050000) vcan0 100#3B138A0201009535
(33.100000) vcan0 100#47138A020100964A
(33.100000) vcan0 101#A605000028234BE3
(33.100000) vcan0 200#630DEE02CC014B06
(33.100000) vcan0 201#8813000000004BD3
(33.150000) vcan0 100#53138A020100975F
(33.200000) vcan0 100#5E138A020100985D
(33.200000) vcan0 101#B305000028234CF1
(33.200000) vcan0 200#730DEE02CC014C11
(33.200000) vcan0 201#8813000000004CD4
(33.200000) vcan0 300#000003F00000A656
(33.250000) vcan0 100#6A138A0201009968
(33.250000) vcan0 400#3C1D804C0C2B854B
(33.300000) vcan0 100#76138A0201009A77
(33.300000) vcan0 101#C105000028234D82
(33.300000) vcan0 200#840DEE02CD014DE6
(33.300000) vcan0 201#8813000000004DD5
(33.350000) vcan0 100#82138A0201009B82
(33.400000) vcan0 100#8D138A0201009C8A
(33.400000) vcan0 101#CF05000028234E8F
(33.400000) vcan0 200#940DEE02CD014EF5
(33.400000) vcan0 201#8813000000004ED6
(33.400000) vcan0 300#000003F00000A757
(33.450000) vcan0 100#99138A0201009D9F
(33.500000) vcan0 100#A5138A0201009EA0
(33.500000) vcan0 101#DD05000028234F9C
(33.500000) vcan0 200#A40DEE02CE014FC7
(33.500000) vcan0 201#8813000000004FD7
(33.500000) vcan0 400#3A1D674D0C2B86A8
(33.500000) vcan0 500#CE008C00012A432F
(33.550000) vcan0 100#B0138A0201009FB4
(33.600000) vcan0 100#BC138A020100A087
(33.600000) vcan0 101#EB050000282350B5
(33.600000) vcan0 200#B40DEE02CE0150C8
(33.600000) vcan0 201#88130000000050C8
(33.600000) vcan0 300#000003F00000A858
(33.650000) vcan0 100#C8138A020100A1F2
(33.700000) vcan0 100#D3138A020100A2EA
(33.700000) vcan0 101#F9050000282351A6
(33.700000) vcan0 200#C50DEE02CE0151B8
(33.700000) vcan0 201#88130000000051C9
(33.750000) vcan0 100#DF138A020100A3E7
(33.750000) vcan0 400#391D4E4E0C2B8780
(33.800000) vcan0 100#EB138A020100A4D4
(33.800000) vcan0 101#0706000028235258
(33.800000) vcan0 200#D50DEE02CF0152AA
(33.800000) vcan0 201#88130000000052CA
(33.800000) vcan0 300#000003F00000A959
(33.850000) vcan0 100#F7138A020100A5C9
(33.900000) vcan0 100#02148A020100A638
(33.900000) vcan0 101#150600002823534B
(33.900000) vcan0 200#E50DEE02CF01539B
(33.900000) vcan0 201#88130000000053CB
(33.950000) vcan0 100#0E148A020100A735
(34.000000) vcan0 100#1A148A020100A82E
(34.000000) vcan0 101#240600002823547D
(34.000000) vcan0 200#F50DEE02D0015493
(34.000000) vcan0 201#88130000000054CC
(34.000000) vcan0 300#000003F00000AA5A
(34.000000) vcan0 400#371D344F0C2B88FA
(34.000000) vcan0 500#CE008C00012A4428
(34.000000) vcan0 600#5401000000002271
(34.050000) vcan0 100#25148A020100A910
(34.100000) vcan0 100#31148A020100AA07
(34.100000) vcan0 101#320600002823556A
(34.100000) vcan0 200#060EEE02D0015562
(34.100000) vcan0 201#88130000000055CD
(34.150000) vcan0 100#3D148A020100AB0A
(34.200000) vcan0 100#48148A020100AC78
(34.200000) vcan0 101#400600002823561B
(34.200000) vcan0 200#160EEE02D1015670
(34.200000) vcan0 201#88130000000056CE
(34.200000) vcan0 300#000003F00000AB5B
(34.250000) vcan0 100#54148A020100AD65
(34.250000) vcan0 400#351D1A500C2B89C8
(34.300000) vcan0 100#60148A020100AE52
(34.300000) vcan0 101#4F06000028235715
(34.300000) vcan0 200#260EEE02D1015741
(34.300000) vcan0 201#88130000000057CF
(34.350000) vcan0 100#6C148A020100AF5F
(34.400000) vcan0 100#77148A020100B05B
(34.400000) vcan0 101#5D06000028235808
(34.400000) vcan0 200#360EEE02D201585D
(34.400000) vcan0 201#88130000000058C0
(34.400000) vcan0 300#000003F00000AC5C
(34.450000) vcan0 100#83148A020100B1AE
(34.500000) vcan0 100#8F148A020100B2A1
(34.500000) vcan0 101#6C06000028235938
(34.500000) vcan0 200#470EEE02D201592D
(34.500000) vcan0 201#88130000000059C1
(34.500000) vcan0 400#341D00510C2B8AD1
(34.500000) vcan0 500#CE008C00012A4529
(34.550000) vcan0 100#9A148A020100B3B5
(34.600000) vcan0 100#A6148A020100B48E
(34.600000) vcan0 101#7B06000028235A2C
(34.600000) vcan0 200#570EEE02D3015A3F
(34.600000) vcan0 201#8813000000005AC2
(34.600000) vcan0 300#000003F00000AD5D
(34.650000) vcan0 100#B2148A020100B59B
(34.700000) vcan0 100#BD148A020100B697
(34.700000) vcan0 101#8906000028235BDF
(34.700000) vcan0 200#670EEE02D3015B0E
(34.700000) vcan0 201#8813000000005BC3
(34.750000) vcan0 100#C9148A020100B7E2
(34.750000) vcan0 400#331DE6510C2B8B31
(34.800000) vcan0 100#D5148A020100B8F1
(34.800000) vcan0 101#9806000028235CC9
(34.800000) vcan0 200#770EEE02D3015C19
(34.800000) vcan0 201#8813000000005CC4
(34.800000) vcan0 300#000003F00000AE5E
(34.850000) vcan0 100#E1148A020100B9C4
(34.900000) vcan0 100#EC148A020100BACA
(34.900000) vcan0 101#A706000028235DF7
(34.900000) vcan0 200#880EEE02D4015DE0
(34.900000) vcan0 201#8813000000005DC5
(34.950000) vcan0 100#F8148A020100BBDF
(35.000000) vcan0 100#04158A020100BC25
(35.000000) vcan0 101#B606000028235EE5
(35.000000) vcan0 200#980EEE02D4015EF3
(35.000000) vcan0 201#8813000000005EC6
(35.000000) vcan0 300#000003F00000AF5F
(35.000000) vcan0 400#321DCB520C2B8C19
(35.000000) vcan0 500#CE008C00012A462A
(35.000000) vcan0 600#5E0100000000237A
(35.050000) vcan0 100#0F158A020100BD2F
(35.100000) vcan0 100#1B158A020100BE38
(35.100000) vcan0 101#C506000028235F97
(35.100000) vcan0 200#A80EEE02D5015FC3
(35.100000) vcan0 201#8813000000005FC7
(35.150000) vcan0 100#27158A020100BF05
(35.200000) vcan0 100#32158A020100C06F
(35.200000) vcan0 101#D4060000282360B9
(35.200000) vcan0 200#B80EEE02D50160EC
(35.200000) vcan0 201#88130000000060F8
(35.200000) vcan0 300#000003F00000B040
(35.250000) vcan0 100#3E158A020100C162
(35.250000) vcan0 400#311DB0530C2B8D61
(35.300000) vcan0 100#4A158A020100C215
(35.300000) vcan0 101#E30600002823618F
(35.300000) vcan0 200#C90EEE02D601619F
(35.300000) vcan0 201#88130000000061F9
(35.350000) vcan0 100#56158A020100C308
(35.400000) vcan0 100#61158A020100C438
(35.400000) vcan0 101#F20600002823629D
(35.400000) vcan0 200#D90EEE02D601628C
(35.400000) vcan0 201#88130000000062FA
(35.400000) vcan0 300#000003F00000B141
(35.450000) vcan0 100#6D158A020100C535
(35.500000) vcan0 100#79158A020100C622
(35.500000) vcan0 101#010700002823636E
(35.500000) vcan0 200#E90EEE02D70163BC
(35.500000) vcan0 201#88130000000063FB
(35.500000) vcan0 400#301D94540C2B8E40
(35.500000) vcan0 500#CE008C00012A472B
(35.550000) vcan0 100#84158A020100C7DE
(35.600000) vcan0 100#90158A020100C8C5
(35.600000) vcan0 101#1107000028236479
(35.600000) vcan0 200#F90EEE02D70164AB
(35.600000) vcan0 201#88130000000064FC
(35.600000) vcan0 300#000003F00000B242
(35.650000) vcan0 100#9C158A020100C9C8
(35.700000) vcan0 100#A7158A020100CAF0
(35.700000) vcan0 101#2007000028236549
(35.700000) vcan0 200#0A0FEE02D8016557
(35.700000) vcan0 201#88130000000065FD
(35.750000) vcan0 100#B3158A020100CBE5
(35.750000) vcan0 400#2F1D78550C2B8FB3
(35.800000) vcan0 100#BF158A020100CCEE
(35.800000) vcan0 101#2F07000028236645
(35.800000) vcan0 200#1A0FEE02D8016644
(35.800000) vcan0 201#88130000000066FE
(35.800000) vcan0 300#000003F00000B343
(35.850000) vcan0 100#CB158A020100CD9B
(35.900000) vcan0 100#D6158A020100CE85
(35.900000) vcan0 101#3F07000028236754
(35.900000) vcan0 200#2A0FEE02D8016775
(35.900000) vcan0 201#88130000000067FF
(35.950000) vcan0 100#E2158A020100CFB0
(36.000000) vcan0 100#EE158A020100D0A3
(36.000000) vcan0 101#4E0700002823682A
(36.000000) vcan0 200#3A0FEE02D901686B
(36.000000) vcan0 201#88130000000068F0
(36.000000) vcan0 300#000003F00000B444
(36.000000) vcan0 400#2F1D5C560C2B908B
(36.000000) vcan0 500#CE008C00012A4824
(36.000000) vcan0 600#680100000000244B
(36.050000) vcan0 100#F9158A020100D1B5
(36.100000) vcan0 100#05168A020100D249
(36.100000) vcan0 101#5E0700002823693B
(36.100000) vcan0 200#4B0FEE02D901691B
(36.100000) vcan0 201#88130000000069F1
(36.150000) vcan0 100#11168A020100D35C
(36.200000) vcan0 100#1C168A020100D456
(36.200000) vcan0 101#6E07000028236A08
(36.200000) vcan0 200#5B0FEE02DA016A0B
(36.200000) vcan0 201#8813000000006AF2
(36.200000) vcan0 300#000003F00000B545
(36.250000) vcan0 100#28168A020100D563
(36.250000) vcan0 400#2E1D3F570C2B91E9
(36.300000) vcan0 100#34168A020100D67C
(36.300000) vcan0 101#7E07000028236B19
(36.300000) vcan0 200#6B0FEE02DA016B3A
(36.300000) vcan0 201#8813000000006BF3
(36.350000) vcan0 100#40168A020100D709
(36.400000) vcan0 100#4B168A020100D80D
(36.400000) vcan0 101#8D07000028236CED
(36.400000) vcan0 200#7B0FEE02DB016C2C
(36.400000) vcan0 201#8813000000006CF4
(36.400000) vcan0 300#000003F00000B646
(36.450000) vcan0 100#57168A020100D910
(36.500000) vcan0 100#63168A020100DA27
(36.500000) vcan0 101#9D07000028236DFC
(36.500000) vcan0 200#8C0FEE02DB016DDA
(36.500000) vcan0 201#8813000000006DF5
(36.500000) vcan0 400#2E1D22580C2B92F8
(36.500000) vcan0 500#CE008C00012A4925
(36.550000) vcan0 100#6E168A020100DB2B
(36.600000) vcan0 100#7A168A020100DC38
(36.600000) vcan0 101#AD07000028236ECF
(36.600000) vcan0 200#9C0FEE02DC016ECE
(36.600000) vcan0 201#8813000000006EF6
(36.600000) vcan0 300#000003F00000B747
(36.650000) vcan0 100#86168A020100DDC5
(36.700000) vcan0 100#91168A020100DED1
(36.700000) vcan0 101#BD07000028236FDE
(36.700000) vcan0 200#AC0FEE02DC016FFF
(36.700000) vcan0 201#8813000000006FF7
(36.750000) vcan0 100#9D168A020100DFDC
(36.750000) vcan0 400#2E1D05590C2B93DF
(36.800000) vcan0 100#A9168A020100E0D7
(36.800000) vcan0 101#CD070000282370B1
(36.800000) vcan0 200#BC0FEE02DC0170F0
(36.800000) vcan0 201#88130000000070E8
(36.800000) vcan0 300#000003F00000B848
(36.850000) vcan0 100#B5168A020100E1CA
(36.900000) vcan0 100#C0168A020100E2BC
(36.900000) vcan0 101#DD070000282371A0
(36.900000) vcan0 200#CD0FEE02DD017181
(36.900000) vcan0 201#88130000000071E9
(36.950000) vcan0 100#CC168A020100E3B1
(37.000000) vcan0 100#D8168A020100E4A2
(37.000000) vcan0 101#EE07000028237290
(37.000000) vcan0 200#DD0FEE02DD017292
(37.000000) vcan0 201#88130000000072EA
(37.000000) vcan0 300#000003F00000B949
(37.000000) vcan0 400#2E1DE6590C2B943B
(37.000000) vcan0 500#CE008C00012A4A26
(37.000000) vcan0 600#7201000000002550
(37.050000) vcan0 100#E3168A020100E598
(37.100000) vcan0 100#EF168A020100E697
(37.100000) vcan0 101#FE07000028237381
(37.100000) vcan0 200#ED0FEE02DE0173A0
(37.100000) vcan0 201#88130000000073EB
(37.150000) vcan0 100#FB168A020100E782
(37.200000) vcan0 100#06178A020100E871
(37.200000) vcan0 101#0E08000028237479
(37.200000) vcan0 200#FD0FEE02DE0174B7
(37.200000) vcan0 201#88130000000074EC
(37.200000) vcan0 300#000003F00000BA4A
(37.250000) vcan0 100#12178A020100E964
(37.250000) vcan0 400#2E1DC85A0C2B9517
(37.300000) vcan0 100#1E178A020100EA6B
(37.300000) vcan0 101#1F08000028237569
(37.300000) vcan0 200#0E10EE02DF01755B
(37.300000) vcan0 201#88130000000075ED
(37.350000) vcan0 100#2A178A020100EB5E
(37.400000) vcan0 100#35178A020100EC46
(37.400000) vcan0 101#2F0800002823765A
(37.400000) vcan0 200#1E10EE02DF017648
(37.400000) vcan0 201#88130000000076EE
(37.400000) vcan0 300#000003F00000BB4B
(37.450000) vcan0 100#41178A020100ED33
(37.500000) vcan0 100#4D178A020100EE3C
(37.500000) vcan0 101#4008000028237734
(37.500000) vcan0 200#2E10EE02E0017746
(37.500000) vcan0 201#88130000000077EF
(37.500000) vcan0 400#2F1DA85B0C2B9674
(37.500000) vcan0 500#CE008C00012A4B27
(37.550000) vcan0 100#58178A020100EF28
(37.600000) vcan0 100#64178A020100F00B
(37.600000) vcan0 101#500800002823782B
(37.600000) vcan0 200#3E10EE02E0017859
(37.600000) vcan0 201#88130000000078E0
(37.600000) vcan0 300#000003F00000BC4C
(37.650000) vcan0 100#70178A020100F11E
(37.700000) vcan0 100#7B178A020100F216
(37.700000) vcan0 101#610800002823791B
(37.700000) vcan0 200#4F10EE02E0017929
(37.700000) vcan0 201#88130000000079E1
(37.750000) vcan0 100#87178A020100F3EB
(37.750000) vcan0 400#301D885C0C2B974D
(37.800000) vcan0 100#93178A020100F4F8
(37.800000) vcan0 101#7208000028237A0B
(37.800000) vcan0 200#5F10EE02E1017A3B
(37.800000) vcan0 201#8813000000007AE2
(37.800000) vcan0 300#000003F00000BD4D
(37.850000) vcan0 100#9F178A020100F5F5
(37.900000) vcan0 100#AA178A020100F6C3
(37.900000) vcan0 101#8208000028237BFA
(37.900000) vcan0 200#6F10EE02E1017B0A
(37.900000) vcan0 201#8813000000007BE3
(37.950000) vcan0 100#B6178A020100F7DE
(38.000000) vcan0 100#C2178A020100F8A5
(38.000000) vcan0 101#9308000028237CEC
(38.000000) vcan0 200#7F10EE02E2017C1E
(38.000000) vcan0 201#8813000000007CE4
(38.000000) vcan0 300#000003F00000BE4E
(38.000000) vcan0 400#301D685D0C2B98A3
(38.000000) vcan0 500#CE008C00012A4C20
(38.000000) vcan0 600#7C0100000000265D
(38.050000) vcan0 100#CD178A020100F9AB
(38.100000) vcan0 100#D9178A020100FABC
(38.100000) vcan0 101#A408000028237DDA
(38.100000) vcan0 200#9010EE02E2017DF0
(38.100000) vcan0 201#8813000000007DE5
(38.150000) vcan0 100#E5178A020100FB81
(38.200000) vcan0 100#F0178A020100FC93
(38.200000) vcan0 101#B508000028237EC8
(38.200000) vcan0 200#A010EE02E3017EC2
(38.200000) vcan0 201#8813000000007EE6
(38.200000) vcan0 300#000003F00000BF4F
(38.250000) vcan0 100#FC178A020100FD9E
(38.250000) vcan0 400#311D475E0C2B998F
(38.300000) vcan0 100#08188A020100FE66
(38.300000) vcan0 101#C608000028237FBA
(38.300000) vcan0 200#B010EE02E3017FD3
(38.300000) vcan0 201#8813000000007FE7
(38.350000) vcan0 100#14188A020100FF7B
(38.400000) vcan0 100#1F188A020100008F
(38.400000) vcan0 101#D708000028238054
(38.400000) vcan0 200#C010EE02E301805C
(38.400000) vcan0 201#8813000000008018
(38.400000) vcan0 300#000003F00000C030
(38.450000) vcan0 100#2B188A02010001BA
(38.500000) vcan0 100#37188A02010002A5
(38.500000) vcan0 101#E90800002823816B
(38.500000) vcan0 200#D110EE02E401814B
(38.500000) vcan0 201#8813000000008119
(38.500000) vcan0 400#321D265F0C2B9AEF
(38.500000) vcan0 500#CE008C00012A4D21
(38.550000) vcan0 100#42188A02010003D1
(38.600000) vcan0 100#4E188A02010004DA
(38.600000) vcan0 101#FA0800002823827B
(38.600000) vcan0 200#E110EE02E4018278
(38.600000) vcan0 201#881300000000821A
(38.600000) vcan0 300#000003F00000C131
(38.650000) vcan0 100#5A188A02010005CF
(38.700000) vcan0 100#65188A02010006F3
(38.700000) vcan0 101#0B0900002823838A
(38.700000) vcan0 200#F110EE02E5018368
(38.700000) vcan0 201#881300000000831B
(38.750000) vcan0 100#71188A02010007E6
(38.750000) vcan0 400#341D04600C2B9BF5
(38.800000) vcan0 100#7D188A02010008E5
(38.800000) vcan0 101#1D0900002823849B
(38.800000) vcan0 200#0111EE02E501849E
(38.800000) vcan0 201#881300000000841C
(38.800000) vcan0 300#000003F00000C232
(38.850000) vcan0 100#89188A0201000910
(38.900000) vcan0 100#94188A0201000A0E
(38.900000) vcan0 101#2E090000282385A9
(38.900000) vcan0 200#1211EE02E601858F
(38.900000) vcan0 201#881300000000851D
(38.950000) vcan0 100#A0188A0201000B3B
(39.000000) vcan0 100#AC188A0201000C30
(39.000000) vcan0 101#3F090000282386BB
(39.000000) vcan0 200#2211EE02E60186BC
(39.000000) vcan0 201#881300000000861E
(39.000000) vcan0 300#000003F00000C333
(39.000000) vcan0 400#351DE1600C2B9C16
(39.000000) vcan0 500#CE008C00012A4E22
(39.000000) vcan0 600#86010000000027A6
(39.050000) vcan0 100#B7188A0201000D2A
(39.100000) vcan0 100#C3188A0201000E5D
(39.100000) vcan0 101#51090000282387D4
(39.100000) vcan0 200#3211EE02E70187AC
(39.100000) vcan0 201#881300000000871F
(39.150000) vcan0 100#CF188A0201000F50
(39.200000) vcan0 100#DA188A020100105A
(39.200000) vcan0 101#63090000282388E9
(39.200000) vcan0 200#4211EE02E70188D3
(39.200000) vcan0 201#8813000000008810
(39.200000) vcan0 300#000003F00000C434
(39.250000) vcan0 100#E6188A0201001167
(39.250000) vcan0 400#371DBE610C2B9D4B
(39.300000) vcan0 100#F2188A0201001270
(39.300000) vcan0 101#74090000282389FF
(39.300000) vcan0 200#5311EE02E70189C3
(39.300000) vcan0 201#8813000000008911
(39.350000) vcan0 100#FE188A020100137D
(39.400000) vcan0 100#09198A020100148C
(39.400000) vcan0 101#8609000028238A0E
(39.400000) vcan0 200#6311EE02E8018AFF
(39.400000) vcan0 201#8813000000008A12
(39.400000) vcan0 300#000003F00000C535
(39.450000) vcan0 100#15198A0201001591
(39.500000) vcan0 100#21198A02010016A6
(39.500000) vcan0 101#9809000028238B11
(39.500000) vcan0 200#7311EE02E8018BEE
(39.500000) vcan0 201#8813000000008B13
(39.500000) vcan0 400#381D9B620C2B9E61
(39.500000) vcan0 500#CE008C00012A4F23
(39.550000) vcan0 100#2C198A02010017AA
(39.600000) vcan0 100#38198A02010018B1
(39.600000) vcan0 101#AA09000028238C24
(39.600000) vcan0 200#8311EE02E9018C18
(39.600000) vcan0 201#8813000000008C14
(39.600000) vcan0 300#000003F00000C636
(39.650000) vcan0 100#44198A02010019CC
(39.700000) vcan0 100#4F198A0201001AC4
(39.700000) vcan0 101#BC09000028238D33
(39.700000) vcan0 200#9411EE02E9018D0E
(39.700000) vcan0 201#8813000000008D15
(39.750000) vcan0 100#5B198A0201001BD1
(39.750000) vcan0 400#3A1D77630C2B9F8F
(39.800000) vcan0 100#67198A0201001CEA
(39.800000) vcan0 101#CE09000028238E42
(39.800000) vcan0 200#A411EE02EA018E3E
(39.800000) vcan0 201#8813000000008E16
(39.800000) vcan0 300#000003F00000C737
(39.850000) vcan0 100#73198A0201001DFF
(39.900000) vcan0 100#7E198A0201001EF1
(39.900000) vcan0 101#E009000028238F6D
(39.900000) vcan0 200#B411EE02EA018F2F
(39.900000) vcan0 201#8813000000008F17
(39.950000) vcan0 100#8A198A0201001F04
(40.000000) vcan0 100#96198A0201002027
(40.000000) vcan0 101#F209000028239060
(40.000000) vcan0 200#C411EE02EA019040
(40.000000) vcan0 201#8813000000009008
(40.000000) vcan0 300#000003F00000C838
(40.000000) vcan0 400#3C1D53640C2BA095
(40.000000) vcan0 500#CE008C00012A503C
(40.000000) vcan0 600#90010000000028BF
(40.050000) vcan0 100#A1198A0201002111
(40.100000) vcan0 100#AD198A020100221E
(40.100000) vcan0 101#040A000028239194
(40.100000) vcan0 200#D511EE02EB019151
(40.100000) vcan0 201#8813000000009109
(40.150000) vcan0 100#B9198A020100230B
(40.200000) vcan0 100#C4198A0201002471
(40.200000) vcan0 101#170A000028239284
(40.200000) vcan0 200#E511EE02EB019262
(40.200000) vcan0 201#881300000000920A
(40.200000) vcan0 300#000003F00000C939
(40.250000) vcan0 100#D0198A0201002564
(40.250000) vcan0 400#3E1D2E650C2BA1EA
(40.300000) vcan0 100#DC198A020100266B
(40.300000) vcan0 101#290A0000282393BB
(40.300000) vcan0 200#F511EE02EC019374
(40.300000) vcan0 201#881300000000930B
(40.350000) vcan0 100#E8198A020100275E
(40.400000) vcan0 100#F3198A020100284A
(40.400000) vcan0 101#3B0A0000282394AE
(40.400000) vcan0 200#0512EE02EC019480
(40.400000) vcan0 201#881300000000940C
(40.400000) vcan0 300#000003F00000CA3A
(40.450000) vcan0 100#FF198A0201002947
(40.500000) vcan0 100#0B1A8A0201002AB3
(40.500000) vcan0 101#4E0A0000282395DA
(40.500000) vcan0 200#1612EE02ED019593
(40.500000) vcan0 201#881300000000950D
(40.500000) vcan0 400#401D09660C2BA2B3
(40.500000) vcan0 500#CE008C00012A513D
(40.550000) vcan0 100#161A8A0201002BAF
(40.600000) vcan0 100#221A8A0201002C9C
(40.600000) vcan0 101#610A0000282396F6
(40.600000) vcan0 200#2612EE02ED0196A0
(40.600000) vcan0 201#881300000000960E
(40.600000) vcan0 300#000003F00000CB3B
(40.650000) vcan0 100#2E1A8A0201002D91
(40.700000) vcan0 100#391A8A0201002E85
(40.700000) vcan0 101#730A0000282397E5
(40.700000) vcan0 200#3612EE02ED0197B1
(40.700000) vcan0 201#881300000000970F
(40.750000) vcan0 100#451A8A0201002FF8
(40.750000) vcan0 400#421DE3660C2BA35A
(40.800000) vcan0 100#511A8A02010030F3
(40.800000) vcan0 101#860A00002823981F
(40.800000) vcan0 200#4612EE02EE0198CD
(40.800000) vcan0 201#8813000000009800
(40.800000) vcan0 300#000003F00000CC3C
(40.850000) vcan0 100#5D1A8A02010031FE
(40.900000) vcan0 100#681A8A02010032C8
(40.900000) vcan0 101#990A000028239901
(40.900000) vcan0 200#5712EE02EE0199DD
(40.900000) vcan0 201#8813000000009901
(40.950000) vcan0 100#741A8A02010033D5
(41.000000) vcan0 100#801A8A0201003426
(41.000000) vcan0 101#AB0A000028239A30
(41.000000) vcan0 200#6712EE02EF019AEF
(41.000000) vcan0 201#8813000000009A02
(41.000000) vcan0 300#000003F00000CD3D
(41.000000) vcan0 400#441DBD670C2BA404
(41.000000) vcan0 500#CE008C00012A523E
(41.000000) vcan0 600#9A010000000029B4
(41.050000) vcan0 100#8B1A8A020100352C
(41.100000) vcan0 100#971A8A0201003633
(41.100000) vcan0 101#BE0A000028239B24
(41.100000) vcan0 200#7712EE02EF019BFE
(41.100000) vcan0 201#8813000000009B03
(41.150000) vcan0 100#A31A8A0201003706
(41.200000) vcan0 100#AE1A8A0201003804
(41.200000) vcan0 101#D10A000028239C4C
(41.200000) vcan0 200#8712EE02EF019C09
(41.200000) vcan0 201#8813000000009C04
(41.200000) vcan0 300#000003F00000CE3E
(41.250000) vcan0 100#BA1A8A0201003911
(41.250000) vcan0 400#461D97680C2BA522
(41.300000) vcan0 100#C61A8A0201003A6E
(41.300000) vcan0 101#E40A000028239D78
(41.300000) vcan0 200#9812EE02F0019D08
(41.300000) vcan0 201#8813000000009D05
(41.350000) vcan0 100#D21A8A0201003B7B
(41.400000) vcan0 100#DD1A8A0201003C73
(41.400000) vcan0 101#F70A000028239E68
(41.400000) vcan0 200#A812EE02F0019E3B
(41.400000) vcan0 201#8813000000009E06
(41.400000) vcan0 300#000003F00000CF3F
(41.450000) vcan0 100#E91A8A0201003D46
(41.500000) vcan0 100#F51A8A0201003E59
(41.500000) vcan0 101#0A0B000028239F95
(41.500000) vcan0 200#B812EE02F1019F2B
(41.500000) vcan0 201#8813000000009F07
(41.500000) vcan0 400#491D71690C2BA6C9
(41.500000) vcan0 500#CE008C00012A533F
